!Agilent Technologies,N5230A,MY46401289,A.07.50.67
!Agilent N5230A: A.07.50.67
!Date: Tuesday, January 05, 2021 01:31:06
!Correction: S11(Full 2 Port(1,2)) 
!S21(Full 2 Port(1,2)) 
!S12(Full 2 Port(1,2)) 
!S22(Full 2 Port(1,2)) 
!S2P File: Measurements: S11, S21, S12, S22:
# Hz S  MA   R 50
5136574361.908 8.965275e-001 1.397811e+001 2.861356e-003 -1.568782e+002 2.874866e-003 -1.556300e+002 8.095826e-001 -1.069209e+002
5136574430.9291 8.965861e-001 1.398308e+001 2.865394e-003 -1.568000e+002 2.875555e-003 -1.558146e+002 8.096375e-001 -1.069228e+002
5136574499.9502 8.965538e-001 1.398351e+001 2.874154e-003 -1.569585e+002 2.870255e-003 -1.557681e+002 8.096487e-001 -1.069233e+002
5136574568.9712 8.965645e-001 1.397990e+001 2.860452e-003 -1.568482e+002 2.868855e-003 -1.557957e+002 8.095917e-001 -1.069226e+002
5136574637.9923 8.965144e-001 1.398643e+001 2.863206e-003 -1.568748e+002 2.871641e-003 -1.558241e+002 8.096170e-001 -1.069256e+002
5136574707.0133 8.965234e-001 1.398194e+001 2.867592e-003 -1.568713e+002 2.877626e-003 -1.557851e+002 8.095552e-001 -1.069268e+002
5136574776.0344 8.964596e-001 1.398565e+001 2.859257e-003 -1.569360e+002 2.879133e-003 -1.559099e+002 8.095924e-001 -1.069264e+002
5136574845.0554 8.965539e-001 1.398676e+001 2.861332e-003 -1.569684e+002 2.882355e-003 -1.557095e+002 8.095790e-001 -1.069222e+002
5136574914.0765 8.965317e-001 1.398019e+001 2.862000e-003 -1.567915e+002 2.877094e-003 -1.559024e+002 8.096716e-001 -1.069214e+002
5136574983.0975 8.970557e-001 1.382566e+001 2.859951e-003 -1.569530e+002 2.874015e-003 -1.557359e+002 8.096191e-001 -1.069210e+002
5136575052.1186 8.969114e-001 1.382140e+001 2.864626e-003 -1.568225e+002 2.875648e-003 -1.559998e+002 8.096364e-001 -1.069208e+002
5136575121.1397 8.969396e-001 1.381835e+001 2.870879e-003 -1.569202e+002 2.876542e-003 -1.557032e+002 8.096113e-001 -1.069202e+002
5136575190.1607 8.969676e-001 1.382566e+001 2.871651e-003 -1.569460e+002 2.872591e-003 -1.558378e+002 8.096366e-001 -1.069244e+002
5136575259.1818 8.969936e-001 1.381403e+001 2.866880e-003 -1.568726e+002 2.872350e-003 -1.557657e+002 8.095543e-001 -1.069222e+002
5136575328.2028 8.969584e-001 1.381200e+001 2.867241e-003 -1.569396e+002 2.878540e-003 -1.558630e+002 8.095958e-001 -1.069226e+002
5136575397.2239 8.969806e-001 1.381527e+001 2.865865e-003 -1.566296e+002 2.867119e-003 -1.557109e+002 8.096560e-001 -1.069237e+002
5136575466.2449 8.969839e-001 1.381580e+001 2.863386e-003 -1.568766e+002 2.879541e-003 -1.559051e+002 8.095959e-001 -1.069237e+002
5136575535.266 8.969396e-001 1.381733e+001 2.875435e-003 -1.569381e+002 2.867291e-003 -1.558190e+002 8.095949e-001 -1.069256e+002
5136575604.2871 8.971219e-001 1.381671e+001 2.870874e-003 -1.566956e+002 2.876748e-003 -1.559420e+002 8.096364e-001 -1.069219e+002
5136575673.3081 8.969174e-001 1.381583e+001 2.873695e-003 -1.566070e+002 2.882157e-003 -1.558239e+002 8.097073e-001 -1.069262e+002
5136575742.3292 8.969963e-001 1.381496e+001 2.872759e-003 -1.571020e+002 2.877618e-003 -1.558726e+002 8.095871e-001 -1.069221e+002
5136575811.3502 8.969792e-001 1.381549e+001 2.873755e-003 -1.568092e+002 2.891631e-003 -1.557462e+002 8.097025e-001 -1.069243e+002
5136575880.3713 8.968849e-001 1.381626e+001 2.878386e-003 -1.570361e+002 2.888108e-003 -1.557951e+002 8.096209e-001 -1.069293e+002
5136575949.3923 8.968998e-001 1.381788e+001 2.873602e-003 -1.568494e+002 2.886007e-003 -1.557905e+002 8.096486e-001 -1.069244e+002
5136576018.4134 8.968440e-001 1.381415e+001 2.875093e-003 -1.570071e+002 2.886257e-003 -1.557931e+002 8.096168e-001 -1.069233e+002
5136576087.4344 8.970033e-001 1.381490e+001 2.869214e-003 -1.570035e+002 2.878208e-003 -1.557895e+002 8.096209e-001 -1.069215e+002
5136576156.4555 8.968402e-001 1.381346e+001 2.878113e-003 -1.568387e+002 2.874273e-003 -1.556806e+002 8.095772e-001 -1.069245e+002
5136576225.4766 8.968812e-001 1.380773e+001 2.870648e-003 -1.569441e+002 2.880861e-003 -1.558322e+002 8.095998e-001 -1.069227e+002
5136576294.4976 8.968992e-001 1.381315e+001 2.866655e-003 -1.570127e+002 2.885960e-003 -1.555353e+002 8.096691e-001 -1.069209e+002
5136576363.5187 8.968691e-001 1.381048e+001 2.866805e-003 -1.570203e+002 2.876955e-003 -1.557046e+002 8.095791e-001 -1.069250e+002
5136576432.5397 8.968994e-001 1.380986e+001 2.867913e-003 -1.569040e+002 2.880774e-003 -1.559462e+002 8.096195e-001 -1.069259e+002
5136576501.5608 8.967802e-001 1.381333e+001 2.882018e-003 -1.569613e+002 2.883742e-003 -1.557565e+002 8.095975e-001 -1.069236e+002
5136576570.5818 8.969249e-001 1.381504e+001 2.873897e-003 -1.570062e+002 2.884803e-003 -1.557688e+002 8.095791e-001 -1.069242e+002
5136576639.6029 8.968931e-001 1.381562e+001 2.884246e-003 -1.569237e+002 2.875431e-003 -1.558756e+002 8.095981e-001 -1.069270e+002
5136576708.6239 8.969303e-001 1.381014e+001 2.875189e-003 -1.569782e+002 2.884709e-003 -1.558130e+002 8.096273e-001 -1.069232e+002
5136576777.645 8.969129e-001 1.381529e+001 2.865594e-003 -1.569526e+002 2.880228e-003 -1.559231e+002 8.096264e-001 -1.069272e+002
5136576846.6661 8.969044e-001 1.381164e+001 2.878508e-003 -1.570963e+002 2.880978e-003 -1.557212e+002 8.096223e-001 -1.069243e+002
5136576915.6871 8.968613e-001 1.381402e+001 2.874813e-003 -1.568788e+002 2.888123e-003 -1.559404e+002 8.095671e-001 -1.069266e+002
5136576984.7082 8.969037e-001 1.381333e+001 2.866478e-003 -1.570492e+002 2.890352e-003 -1.557445e+002 8.096137e-001 -1.069267e+002
5136577053.7292 8.968531e-001 1.380522e+001 2.879629e-003 -1.568399e+002 2.884757e-003 -1.557759e+002 8.096128e-001 -1.069279e+002
5136577122.7503 8.968836e-001 1.381682e+001 2.882831e-003 -1.571774e+002 2.886943e-003 -1.559091e+002 8.096079e-001 -1.069272e+002
5136577191.7713 8.968467e-001 1.381307e+001 2.877785e-003 -1.570558e+002 2.881372e-003 -1.558131e+002 8.096172e-001 -1.069272e+002
5136577260.7924 8.968104e-001 1.381400e+001 2.877939e-003 -1.569342e+002 2.890965e-003 -1.557460e+002 8.095347e-001 -1.069273e+002
5136577329.8134 8.968840e-001 1.381177e+001 2.877980e-003 -1.569452e+002 2.886221e-003 -1.558377e+002 8.095678e-001 -1.069268e+002
5136577398.8345 8.968281e-001 1.381141e+001 2.869554e-003 -1.570994e+002 2.889474e-003 -1.557998e+002 8.095795e-001 -1.069284e+002
5136577467.8556 8.968223e-001 1.380779e+001 2.873769e-003 -1.567614e+002 2.884290e-003 -1.558121e+002 8.096359e-001 -1.069274e+002
5136577536.8766 8.968845e-001 1.381150e+001 2.870451e-003 -1.569593e+002 2.890495e-003 -1.557822e+002 8.095415e-001 -1.069254e+002
5136577605.8977 8.968307e-001 1.380364e+001 2.889034e-003 -1.569890e+002 2.895293e-003 -1.558957e+002 8.095638e-001 -1.069300e+002
5136577674.9187 8.968165e-001 1.381336e+001 2.876239e-003 -1.570946e+002 2.891718e-003 -1.557436e+002 8.096294e-001 -1.069261e+002
5136577743.9398 8.969042e-001 1.380615e+001 2.879853e-003 -1.571567e+002 2.889156e-003 -1.559509e+002 8.096673e-001 -1.069246e+002
5136577812.9608 8.969238e-001 1.381238e+001 2.886370e-003 -1.570260e+002 2.890884e-003 -1.557374e+002 8.095652e-001 -1.069296e+002
5136577881.9819 8.968931e-001 1.380976e+001 2.890234e-003 -1.569746e+002 2.893669e-003 -1.560027e+002 8.096055e-001 -1.069288e+002
5136577951.003 8.968720e-001 1.381040e+001 2.867008e-003 -1.569852e+002 2.882485e-003 -1.559176e+002 8.096241e-001 -1.069301e+002
5136578020.024 8.968323e-001 1.380964e+001 2.884664e-003 -1.569900e+002 2.894063e-003 -1.559580e+002 8.096093e-001 -1.069257e+002
5136578089.0451 8.968872e-001 1.381039e+001 2.873399e-003 -1.570057e+002 2.886775e-003 -1.560811e+002 8.096010e-001 -1.069276e+002
5136578158.0661 8.969399e-001 1.381272e+001 2.881572e-003 -1.570862e+002 2.894733e-003 -1.558885e+002 8.095726e-001 -1.069270e+002
5136578227.0872 8.969098e-001 1.381105e+001 2.884174e-003 -1.570680e+002 2.893664e-003 -1.559848e+002 8.095743e-001 -1.069290e+002
5136578296.1082 8.969538e-001 1.380906e+001 2.891120e-003 -1.570336e+002 2.893848e-003 -1.556800e+002 8.095774e-001 -1.069313e+002
5136578365.1293 8.969151e-001 1.380604e+001 2.884810e-003 -1.569130e+002 2.887954e-003 -1.557734e+002 8.095396e-001 -1.069267e+002
5136578434.1503 8.969065e-001 1.380230e+001 2.883340e-003 -1.569159e+002 2.896264e-003 -1.559252e+002 8.096367e-001 -1.069292e+002
5136578503.1714 8.970262e-001 1.381246e+001 2.869366e-003 -1.570452e+002 2.896955e-003 -1.559911e+002 8.095543e-001 -1.069290e+002
5136578572.1925 8.969405e-001 1.380688e+001 2.884275e-003 -1.570755e+002 2.905626e-003 -1.558125e+002 8.095616e-001 -1.069313e+002
5136578641.2135 8.969157e-001 1.380691e+001 2.881047e-003 -1.573907e+002 2.900141e-003 -1.559867e+002 8.096371e-001 -1.069286e+002
5136578710.2346 8.969718e-001 1.380887e+001 2.901994e-003 -1.571173e+002 2.898276e-003 -1.560302e+002 8.095827e-001 -1.069330e+002
5136578779.2556 8.969096e-001 1.381454e+001 2.891953e-003 -1.569566e+002 2.893892e-003 -1.560478e+002 8.096182e-001 -1.069267e+002
5136578848.2767 8.969060e-001 1.381028e+001 2.894208e-003 -1.571566e+002 2.893860e-003 -1.558671e+002 8.095779e-001 -1.069338e+002
5136578917.2977 8.968712e-001 1.381131e+001 2.888347e-003 -1.569402e+002 2.893837e-003 -1.559460e+002 8.096042e-001 -1.069322e+002
5136578986.3188 8.968922e-001 1.380664e+001 2.885074e-003 -1.571598e+002 2.890166e-003 -1.559878e+002 8.096429e-001 -1.069301e+002
5136579055.3398 8.969378e-001 1.381318e+001 2.888830e-003 -1.570767e+002 2.891902e-003 -1.560415e+002 8.095617e-001 -1.069276e+002
5136579124.3609 8.969367e-001 1.381081e+001 2.878788e-003 -1.569992e+002 2.891106e-003 -1.559277e+002 8.095330e-001 -1.069311e+002
5136579193.382 8.969370e-001 1.381135e+001 2.885039e-003 -1.569768e+002 2.891784e-003 -1.560452e+002 8.096082e-001 -1.069305e+002
5136579262.403 8.969092e-001 1.380858e+001 2.891203e-003 -1.569696e+002 2.895471e-003 -1.557726e+002 8.095840e-001 -1.069316e+002
5136579331.4241 8.969210e-001 1.380893e+001 2.884454e-003 -1.570844e+002 2.899068e-003 -1.558717e+002 8.095779e-001 -1.069319e+002
5136579400.4451 8.969341e-001 1.380800e+001 2.888948e-003 -1.571724e+002 2.900701e-003 -1.560748e+002 8.095972e-001 -1.069290e+002
5136579469.4662 8.968791e-001 1.381024e+001 2.890646e-003 -1.571657e+002 2.892061e-003 -1.559861e+002 8.095656e-001 -1.069344e+002
5136579538.4872 8.968905e-001 1.381444e+001 2.889547e-003 -1.572064e+002 2.895596e-003 -1.559980e+002 8.095590e-001 -1.069303e+002
5136579607.5083 8.969814e-001 1.381280e+001 2.883112e-003 -1.569381e+002 2.901839e-003 -1.561550e+002 8.095217e-001 -1.069275e+002
5136579676.5294 8.969560e-001 1.380497e+001 2.891032e-003 -1.570381e+002 2.897443e-003 -1.558608e+002 8.096443e-001 -1.069344e+002
5136579745.5504 8.968908e-001 1.380770e+001 2.892791e-003 -1.568775e+002 2.897833e-003 -1.559683e+002 8.095431e-001 -1.069294e+002
5136579814.5715 8.968577e-001 1.381063e+001 2.891609e-003 -1.571098e+002 2.901750e-003 -1.559755e+002 8.095366e-001 -1.069326e+002
5136579883.5925 8.969304e-001 1.381050e+001 2.878531e-003 -1.569996e+002 2.898421e-003 -1.558697e+002 8.096297e-001 -1.069335e+002
5136579952.6136 8.968664e-001 1.380883e+001 2.898348e-003 -1.572069e+002 2.901908e-003 -1.559960e+002 8.096002e-001 -1.069356e+002
5136580021.6346 8.969005e-001 1.381091e+001 2.889647e-003 -1.568953e+002 2.896085e-003 -1.559034e+002 8.095363e-001 -1.069320e+002
5136580090.6557 8.969483e-001 1.380391e+001 2.898279e-003 -1.572539e+002 2.904119e-003 -1.558462e+002 8.095695e-001 -1.069275e+002
5136580159.6767 8.969051e-001 1.380232e+001 2.901674e-003 -1.569949e+002 2.906167e-003 -1.561519e+002 8.095902e-001 -1.069300e+002
5136580228.6978 8.969308e-001 1.381027e+001 2.894136e-003 -1.571239e+002 2.904707e-003 -1.560428e+002 8.096446e-001 -1.069307e+002
5136580297.7189 8.969242e-001 1.380638e+001 2.889430e-003 -1.572324e+002 2.888477e-003 -1.561180e+002 8.096699e-001 -1.069338e+002
5136580366.7399 8.969523e-001 1.380560e+001 2.891758e-003 -1.571151e+002 2.907494e-003 -1.561443e+002 8.096237e-001 -1.069341e+002
5136580435.761 8.968980e-001 1.380510e+001 2.890304e-003 -1.571293e+002 2.899108e-003 -1.560924e+002 8.096223e-001 -1.069345e+002
5136580504.782 8.969275e-001 1.380934e+001 2.891982e-003 -1.572229e+002 2.906823e-003 -1.560414e+002 8.096138e-001 -1.069325e+002
5136580573.8031 8.969142e-001 1.380509e+001 2.886074e-003 -1.571274e+002 2.910156e-003 -1.560376e+002 8.096330e-001 -1.069338e+002
5136580642.8241 8.969656e-001 1.380527e+001 2.897601e-003 -1.569879e+002 2.905661e-003 -1.559677e+002 8.096637e-001 -1.069340e+002
5136580711.8452 8.968751e-001 1.380940e+001 2.884651e-003 -1.571935e+002 2.896400e-003 -1.558837e+002 8.095642e-001 -1.069308e+002
5136580780.8662 8.968416e-001 1.380411e+001 2.890064e-003 -1.572130e+002 2.897004e-003 -1.560295e+002 8.095572e-001 -1.069314e+002
5136580849.8873 8.969225e-001 1.380814e+001 2.897090e-003 -1.572357e+002 2.908654e-003 -1.558786e+002 8.095857e-001 -1.069320e+002
5136580918.9084 8.969070e-001 1.380597e+001 2.896661e-003 -1.571206e+002 2.904207e-003 -1.560172e+002 8.096058e-001 -1.069319e+002
5136580987.9294 8.968990e-001 1.380500e+001 2.902896e-003 -1.571790e+002 2.904181e-003 -1.559083e+002 8.096473e-001 -1.069334e+002
5136581056.9505 8.969162e-001 1.380821e+001 2.904271e-003 -1.570719e+002 2.913211e-003 -1.560313e+002 8.096427e-001 -1.069320e+002
5136581125.9715 8.969759e-001 1.380622e+001 2.896379e-003 -1.571120e+002 2.909455e-003 -1.560492e+002 8.096400e-001 -1.069380e+002
5136581194.9926 8.968697e-001 1.380344e+001 2.898814e-003 -1.571572e+002 2.897189e-003 -1.560329e+002 8.096332e-001 -1.069308e+002
5136581264.0136 8.968618e-001 1.380766e+001 2.893550e-003 -1.570607e+002 2.905567e-003 -1.560070e+002 8.096319e-001 -1.069295e+002
5136581333.0347 8.968471e-001 1.380268e+001 2.888266e-003 -1.570887e+002 2.911490e-003 -1.560815e+002 8.096708e-001 -1.069324e+002
5136581402.0557 8.968694e-001 1.381157e+001 2.899806e-003 -1.571161e+002 2.899720e-003 -1.559799e+002 8.096386e-001 -1.069333e+002
5136581471.0768 8.967970e-001 1.381228e+001 2.903150e-003 -1.572209e+002 2.904448e-003 -1.560601e+002 8.096173e-001 -1.069343e+002
5136581540.0979 8.968340e-001 1.380875e+001 2.897694e-003 -1.570448e+002 2.904542e-003 -1.560536e+002 8.096079e-001 -1.069333e+002
5136581609.1189 8.969492e-001 1.380472e+001 2.903012e-003 -1.572195e+002 2.913663e-003 -1.560332e+002 8.096129e-001 -1.069332e+002
5136581678.14 8.969268e-001 1.381111e+001 2.900962e-003 -1.569797e+002 2.915562e-003 -1.560432e+002 8.095679e-001 -1.069333e+002
5136581747.161 8.968732e-001 1.380919e+001 2.902105e-003 -1.570597e+002 2.907887e-003 -1.562614e+002 8.095812e-001 -1.069336e+002
5136581816.1821 8.968233e-001 1.380571e+001 2.898305e-003 -1.573543e+002 2.902419e-003 -1.561789e+002 8.096362e-001 -1.069359e+002
5136581885.2031 8.969913e-001 1.381108e+001 2.900609e-003 -1.573061e+002 2.907870e-003 -1.560405e+002 8.096168e-001 -1.069379e+002
5136581954.2242 8.969532e-001 1.380583e+001 2.896281e-003 -1.572363e+002 2.911505e-003 -1.560824e+002 8.095312e-001 -1.069368e+002
5136582023.2453 8.968624e-001 1.380596e+001 2.890600e-003 -1.573063e+002 2.907930e-003 -1.561126e+002 8.095843e-001 -1.069361e+002
5136582092.2663 8.969370e-001 1.380864e+001 2.902262e-003 -1.573217e+002 2.903055e-003 -1.559233e+002 8.095734e-001 -1.069346e+002
5136582161.2874 8.968989e-001 1.380242e+001 2.902771e-003 -1.572644e+002 2.906976e-003 -1.559783e+002 8.095373e-001 -1.069343e+002
5136582230.3084 8.969218e-001 1.380121e+001 2.903016e-003 -1.572022e+002 2.909815e-003 -1.561572e+002 8.095643e-001 -1.069340e+002
5136582299.3295 8.967639e-001 1.380531e+001 2.894256e-003 -1.571827e+002 2.921612e-003 -1.560746e+002 8.095686e-001 -1.069348e+002
5136582368.3505 8.969523e-001 1.380313e+001 2.901441e-003 -1.571117e+002 2.909596e-003 -1.559191e+002 8.095754e-001 -1.069388e+002
5136582437.3716 8.968393e-001 1.380415e+001 2.908794e-003 -1.572575e+002 2.917494e-003 -1.561286e+002 8.095529e-001 -1.069377e+002
5136582506.3926 8.968641e-001 1.380453e+001 2.903609e-003 -1.570297e+002 2.922234e-003 -1.557635e+002 8.095548e-001 -1.069384e+002
5136582575.4137 8.968826e-001 1.380677e+001 2.897209e-003 -1.572435e+002 2.916119e-003 -1.560364e+002 8.095977e-001 -1.069352e+002
5136582644.4348 8.967517e-001 1.380253e+001 2.892056e-003 -1.570155e+002 2.909468e-003 -1.561841e+002 8.095266e-001 -1.069347e+002
5136582713.4558 8.968424e-001 1.381014e+001 2.906471e-003 -1.573700e+002 2.912191e-003 -1.562637e+002 8.095685e-001 -1.069367e+002
5136582782.4769 8.969291e-001 1.379860e+001 2.904775e-003 -1.570983e+002 2.920969e-003 -1.562127e+002 8.095698e-001 -1.069338e+002
5136582851.4979 8.968365e-001 1.380470e+001 2.901673e-003 -1.571149e+002 2.911204e-003 -1.559650e+002 8.095959e-001 -1.069331e+002
5136582920.519 8.968704e-001 1.380701e+001 2.904928e-003 -1.571750e+002 2.920094e-003 -1.559966e+002 8.095892e-001 -1.069387e+002
5136582989.54 8.969043e-001 1.380002e+001 2.901597e-003 -1.571881e+002 2.916255e-003 -1.561559e+002 8.096184e-001 -1.069401e+002
5136583058.5611 8.968436e-001 1.380090e+001 2.912909e-003 -1.570905e+002 2.915057e-003 -1.560622e+002 8.095671e-001 -1.069372e+002
5136583127.5821 8.969045e-001 1.380029e+001 2.895825e-003 -1.570297e+002 2.908512e-003 -1.561060e+002 8.095870e-001 -1.069357e+002
5136583196.6032 8.969441e-001 1.380212e+001 2.902420e-003 -1.572952e+002 2.909730e-003 -1.560040e+002 8.096076e-001 -1.069348e+002
5136583265.6243 8.968152e-001 1.380962e+001 2.907134e-003 -1.572520e+002 2.919075e-003 -1.560974e+002 8.096615e-001 -1.069411e+002
5136583334.6453 8.968951e-001 1.380676e+001 2.913029e-003 -1.573541e+002 2.914723e-003 -1.559806e+002 8.096179e-001 -1.069376e+002
5136583403.6664 8.969063e-001 1.380828e+001 2.907182e-003 -1.574704e+002 2.919573e-003 -1.561825e+002 8.095465e-001 -1.069375e+002
5136583472.6874 8.968447e-001 1.380384e+001 2.907012e-003 -1.571484e+002 2.909857e-003 -1.561933e+002 8.095819e-001 -1.069375e+002
5136583541.7085 8.969793e-001 1.380708e+001 2.903314e-003 -1.572984e+002 2.914877e-003 -1.561516e+002 8.096437e-001 -1.069363e+002
5136583610.7295 8.968617e-001 1.379998e+001 2.905740e-003 -1.572416e+002 2.920847e-003 -1.562738e+002 8.095996e-001 -1.069394e+002
5136583679.7506 8.969634e-001 1.380126e+001 2.909233e-003 -1.570007e+002 2.918795e-003 -1.561529e+002 8.096218e-001 -1.069388e+002
5136583748.7716 8.968809e-001 1.380212e+001 2.916584e-003 -1.571525e+002 2.922824e-003 -1.561392e+002 8.095535e-001 -1.069383e+002
5136583817.7927 8.969076e-001 1.380243e+001 2.919873e-003 -1.573462e+002 2.923213e-003 -1.559926e+002 8.096203e-001 -1.069408e+002
5136583886.8138 8.968428e-001 1.380412e+001 2.915628e-003 -1.573448e+002 2.932782e-003 -1.560426e+002 8.095266e-001 -1.069380e+002
5136583955.8348 8.968206e-001 1.379710e+001 2.899005e-003 -1.572840e+002 2.922294e-003 -1.561598e+002 8.095505e-001 -1.069374e+002
5136584024.8559 8.968931e-001 1.380081e+001 2.906937e-003 -1.572168e+002 2.927712e-003 -1.561837e+002 8.095679e-001 -1.069338e+002
5136584093.8769 8.969216e-001 1.380389e+001 2.906037e-003 -1.572621e+002 2.918649e-003 -1.561176e+002 8.095452e-001 -1.069375e+002
5136584162.898 8.969445e-001 1.380379e+001 2.904308e-003 -1.574669e+002 2.919864e-003 -1.561345e+002 8.095325e-001 -1.069360e+002
5136584231.919 8.969584e-001 1.380705e+001 2.900186e-003 -1.573358e+002 2.926936e-003 -1.562264e+002 8.095830e-001 -1.069409e+002
5136584300.9401 8.968678e-001 1.380178e+001 2.915567e-003 -1.571935e+002 2.925742e-003 -1.561535e+002 8.095268e-001 -1.069392e+002
5136584369.9612 8.969813e-001 1.379737e+001 2.908221e-003 -1.571904e+002 2.919947e-003 -1.558777e+002 8.095914e-001 -1.069401e+002
5136584438.9822 8.968546e-001 1.380352e+001 2.915864e-003 -1.572549e+002 2.929329e-003 -1.560947e+002 8.096533e-001 -1.069412e+002
5136584508.0033 8.968400e-001 1.380563e+001 2.903628e-003 -1.571418e+002 2.923721e-003 -1.562665e+002 8.096808e-001 -1.069388e+002
5136584577.0243 8.968297e-001 1.380628e+001 2.903821e-003 -1.571510e+002 2.927259e-003 -1.564057e+002 8.095580e-001 -1.069402e+002
5136584646.0454 8.969864e-001 1.380543e+001 2.910456e-003 -1.573987e+002 2.923339e-003 -1.562912e+002 8.096024e-001 -1.069404e+002
