!Agilent Technologies,N5230A,MY46401289,A.07.50.67
!Agilent N5230A: A.07.50.67
!Date: Tuesday, January 05, 2021 01:13:57
!Correction: S11(Full 2 Port(1,2)) 
!S21(Full 2 Port(1,2)) 
!S12(Full 2 Port(1,2)) 
!S22(Full 2 Port(1,2)) 
!S2P File: Measurements: S11, S21, S12, S22:
# Hz S  MA   R 50
4000000000 8.944813e-001 3.158476e+000 8.365143e-006 1.537353e+001 5.347805e-006 -7.149319e+001 8.287512e-001 -1.008589e+002
4000500000 8.944382e-001 2.689781e+000 1.179366e-005 -4.375128e+001 7.250712e-006 -2.825013e+001 8.280760e-001 -1.016516e+002
4001000000 8.943807e-001 2.230282e+000 1.766868e-005 -2.116070e+001 1.612531e-005 1.564402e+001 8.276272e-001 -1.024484e+002
4001500000 8.943422e-001 1.762938e+000 1.289708e-005 7.325125e+001 1.140162e-005 -5.843616e+001 8.271761e-001 -1.032451e+002
4002000000 8.941740e-001 1.294183e+000 1.030664e-005 2.822297e+000 5.449047e-006 5.410993e+001 8.267640e-001 -1.040098e+002
4002500000 8.939489e-001 8.298895e-001 5.228697e-006 2.968150e+001 8.289495e-006 -9.687875e+001 8.264892e-001 -1.048045e+002
4003000000 8.937830e-001 3.592890e-001 7.191798e-006 1.496455e+002 1.868987e-005 -1.768971e+002 8.258933e-001 -1.055838e+002
4003500000 8.937393e-001 -1.082047e-001 8.742245e-006 -4.650277e+001 4.602591e-006 -1.638184e+002 8.256046e-001 -1.063713e+002
4004000000 8.938297e-001 -5.819945e-001 5.417079e-006 -6.636063e+000 1.363813e-005 -4.014959e+001 8.250838e-001 -1.071719e+002
4004500000 8.937346e-001 -1.050178e+000 1.517876e-005 -9.215870e+001 6.748288e-006 -2.858640e+001 8.245102e-001 -1.079528e+002
4005000000 8.937343e-001 -1.519310e+000 1.467627e-005 -5.850901e+001 1.546448e-005 8.053615e+001 8.241597e-001 -1.087304e+002
4005500000 8.938237e-001 -1.988389e+000 3.922495e-006 -2.629104e+001 7.501688e-006 -3.130602e+000 8.238340e-001 -1.095271e+002
4006000000 8.938951e-001 -2.461804e+000 7.456978e-006 -6.571197e+001 7.272568e-006 1.169732e+001 8.235391e-001 -1.103110e+002
4006500000 8.937987e-001 -2.927387e+000 9.702728e-007 -1.030194e+002 8.495156e-006 -7.211038e+001 8.232188e-001 -1.110994e+002
4007000000 8.935581e-001 -3.394455e+000 1.395960e-005 -2.310142e+001 3.225778e-006 -2.834708e+001 8.226314e-001 -1.118837e+002
4007500000 8.932217e-001 -3.856958e+000 6.967168e-006 4.337305e+001 1.087004e-005 5.928659e+001 8.221653e-001 -1.126537e+002
4008000000 8.931440e-001 -4.319181e+000 8.055651e-006 -1.110235e+002 1.857213e-005 2.632553e+001 8.216377e-001 -1.134415e+002
4008500000 8.930377e-001 -4.789804e+000 2.961052e-006 9.020406e+001 9.713583e-006 -9.904492e+000 8.210781e-001 -1.142216e+002
4009000000 8.929926e-001 -5.265575e+000 1.452354e-005 4.357855e+001 9.460043e-006 1.785161e+002 8.205537e-001 -1.149944e+002
4009500000 8.930171e-001 -5.743732e+000 7.346071e-006 -1.264583e+002 1.090871e-005 -8.199247e+001 8.200000e-001 -1.157723e+002
4010000000 8.930197e-001 -6.216617e+000 9.545670e-006 1.302244e+002 8.537723e-006 -3.803040e+001 8.193984e-001 -1.165553e+002
4010500000 8.930407e-001 -6.685867e+000 3.830098e-006 -4.795585e+001 3.717505e-006 7.715020e+001 8.189755e-001 -1.173229e+002
4011000000 8.931326e-001 -7.155944e+000 4.832424e-006 5.815660e+001 1.434675e-005 -9.067081e+001 8.186117e-001 -1.181077e+002
4011500000 8.931723e-001 -7.624083e+000 8.574816e-006 -9.292908e+001 8.310033e-006 -7.661372e+001 8.180686e-001 -1.188848e+002
4012000000 8.931155e-001 -8.093860e+000 7.045155e-006 -1.347896e+002 8.360398e-006 -7.258310e+001 8.175490e-001 -1.196647e+002
4012500000 8.929840e-001 -8.559545e+000 1.872823e-005 -3.901164e+001 3.750562e-006 1.583488e+001 8.170092e-001 -1.204349e+002
4013000000 8.928507e-001 -9.028183e+000 7.128627e-006 -9.380897e+000 4.131426e-006 -2.773279e+001 8.163977e-001 -1.212129e+002
4013500000 8.927999e-001 -9.493805e+000 1.012993e-005 -1.547826e+002 3.834263e-006 8.819236e+001 8.160302e-001 -1.219847e+002
4014000000 8.928525e-001 -9.957497e+000 9.576887e-006 -6.511337e+001 7.687515e-006 -2.190938e+001 8.154400e-001 -1.227637e+002
4014500000 8.928391e-001 -1.042703e+001 6.950867e-006 -9.028090e+001 5.665347e-006 1.814632e+001 8.148626e-001 -1.235342e+002
4015000000 8.928356e-001 -1.089482e+001 3.958184e-006 -7.608141e+001 4.904432e-006 9.216209e+001 8.142508e-001 -1.243045e+002
4015500000 8.926446e-001 -1.136440e+001 1.110846e-005 -4.380696e+001 7.322172e-006 7.680407e+000 8.137100e-001 -1.250719e+002
4016000000 8.925158e-001 -1.183556e+001 5.682229e-006 -9.637121e+001 1.261476e-005 -5.058354e+001 8.132575e-001 -1.258466e+002
4016500000 8.924069e-001 -1.229893e+001 1.577326e-006 6.978676e+001 1.398768e-005 -1.009868e+002 8.126788e-001 -1.266100e+002
4017000000 8.922472e-001 -1.276755e+001 1.348174e-005 4.843429e+000 1.064862e-005 -1.042282e+002 8.120918e-001 -1.273852e+002
4017500000 8.921559e-001 -1.322776e+001 8.207146e-006 -1.387225e+001 1.005910e-005 -4.423699e+001 8.115572e-001 -1.281530e+002
4018000000 8.919840e-001 -1.368996e+001 1.233297e-005 1.645059e+002 2.461947e-006 -1.711651e+002 8.109839e-001 -1.289248e+002
4018500000 8.919544e-001 -1.415843e+001 3.154218e-006 4.938783e+001 8.534650e-006 1.043956e+002 8.103961e-001 -1.296916e+002
4019000000 8.920223e-001 -1.462314e+001 2.061388e-006 3.189720e+001 4.186379e-006 -9.815211e+001 8.099172e-001 -1.304568e+002
4019500000 8.919368e-001 -1.509024e+001 6.967657e-006 -4.232163e+001 4.456704e-006 -4.356907e+001 8.093144e-001 -1.312133e+002
4020000000 8.920057e-001 -1.555472e+001 8.146940e-006 -4.188631e+001 6.924795e-006 -2.828356e+001 8.086728e-001 -1.319780e+002
4020500000 8.919998e-001 -1.601416e+001 7.244848e-006 -7.486015e+001 1.070987e-005 6.038214e+001 8.080907e-001 -1.327414e+002
4021000000 8.919756e-001 -1.647487e+001 8.863211e-006 6.849255e+001 1.414304e-005 -1.397508e+002 8.075159e-001 -1.335078e+002
4021500000 8.919733e-001 -1.692926e+001 1.012294e-005 1.582726e+002 1.963090e-005 -2.566337e+001 8.068795e-001 -1.342709e+002
4022000000 8.919292e-001 -1.739335e+001 1.024196e-005 -1.089146e+002 2.586095e-005 -5.403982e+001 8.063608e-001 -1.350289e+002
4022500000 8.917596e-001 -1.785799e+001 8.934315e-006 -1.157455e+002 6.602093e-006 -7.715335e+001 8.056918e-001 -1.357837e+002
4023000000 8.917279e-001 -1.832138e+001 5.305179e-006 6.438277e+001 6.558951e-006 -6.982314e+001 8.051475e-001 -1.365426e+002
4023500000 8.916650e-001 -1.878405e+001 9.952806e-006 -1.332143e+002 7.958964e-006 -1.924031e+001 8.045712e-001 -1.372995e+002
4024000000 8.915397e-001 -1.924322e+001 6.020008e-006 -7.482904e+001 9.745235e-006 -1.618954e+002 8.039925e-001 -1.380610e+002
4024500000 8.914412e-001 -1.969909e+001 4.996219e-006 -7.378482e+000 6.365325e-006 -7.037178e+001 8.033310e-001 -1.388196e+002
4025000000 8.915643e-001 -2.015372e+001 1.608939e-005 -9.503629e+001 6.328286e-006 6.587242e+000 8.027265e-001 -1.395772e+002
4025500000 8.914866e-001 -2.062924e+001 7.054769e-006 -1.714859e+002 1.566328e-005 -1.386012e+002 8.020787e-001 -1.403363e+002
4026000000 8.913918e-001 -2.108552e+001 1.845890e-005 -3.397306e+001 6.689782e-006 -1.434728e+002 8.015692e-001 -1.410904e+002
4026500000 8.915737e-001 -2.155048e+001 1.598004e-005 -1.614926e+002 1.409162e-005 -1.008194e+002 8.009753e-001 -1.418434e+002
4027000000 8.914226e-001 -2.201150e+001 6.388934e-006 -8.877040e+001 1.211244e-005 -8.794891e+001 8.004049e-001 -1.426039e+002
4027500000 8.915009e-001 -2.247076e+001 5.502789e-006 -1.417146e+002 1.530522e-005 -8.104279e+001 7.998460e-001 -1.433582e+002
4028000000 8.915811e-001 -2.293449e+001 1.050864e-005 -5.781291e+001 2.194395e-005 -1.318517e+002 7.992435e-001 -1.441146e+002
4028500000 8.915848e-001 -2.339235e+001 9.557850e-006 2.628381e+001 7.524672e-006 -6.920545e+001 7.985206e-001 -1.448613e+002
4029000000 8.915476e-001 -2.385712e+001 1.237678e-005 -1.486387e+002 1.087470e-005 -1.068946e+002 7.978016e-001 -1.456060e+002
4029500000 8.915794e-001 -2.430930e+001 1.773764e-005 -1.057602e+002 6.598378e-006 -1.301960e+002 7.972620e-001 -1.463496e+002
4030000000 8.914986e-001 -2.477569e+001 6.333016e-006 -5.685359e+001 6.476280e-006 -1.082702e+002 7.966635e-001 -1.470984e+002
4030500000 8.914368e-001 -2.523559e+001 1.398899e-005 -9.407809e+001 1.463971e-005 -5.570148e+001 7.961279e-001 -1.478518e+002
4031000000 8.914219e-001 -2.570225e+001 6.354533e-006 9.812807e+001 1.030912e-005 -6.668309e+001 7.956499e-001 -1.486064e+002
4031500000 8.913460e-001 -2.616404e+001 1.146616e-005 -4.263155e+001 7.864278e-006 -1.633958e+002 7.950613e-001 -1.493579e+002
4032000000 8.914623e-001 -2.661787e+001 1.013015e-005 3.789637e+001 2.530867e-006 -9.868720e+001 7.943708e-001 -1.500972e+002
4032500000 8.915089e-001 -2.707648e+001 8.823074e-006 -1.396996e+002 8.980722e-006 9.535338e+001 7.936963e-001 -1.508443e+002
4033000000 8.914613e-001 -2.753250e+001 5.148544e-006 -6.521552e+001 3.120290e-006 1.629347e+002 7.930344e-001 -1.515865e+002
4033500000 8.913742e-001 -2.799347e+001 9.834747e-006 -5.990158e+001 6.711341e-006 -7.834991e+001 7.922978e-001 -1.523314e+002
4034000000 8.912892e-001 -2.845304e+001 1.441490e-005 -1.096611e+002 4.565343e-006 -9.028287e+001 7.916225e-001 -1.530832e+002
4034500000 8.913091e-001 -2.890440e+001 9.593979e-006 -9.354578e+001 1.092443e-005 1.581307e+002 7.909079e-001 -1.538277e+002
4035000000 8.913441e-001 -2.936452e+001 1.656885e-005 -1.048115e+002 8.157157e-006 -6.210535e+001 7.903026e-001 -1.545752e+002
4035500000 8.915350e-001 -2.983359e+001 2.639207e-006 1.310227e+002 2.550019e-006 -1.651028e+002 7.896696e-001 -1.553118e+002
4036000000 8.916466e-001 -3.028013e+001 8.949976e-006 -7.442355e+001 8.842640e-006 -3.971956e+001 7.891533e-001 -1.560522e+002
4036500000 8.917111e-001 -3.074963e+001 6.030564e-006 1.158380e+002 9.358843e-006 1.443710e+002 7.885968e-001 -1.567907e+002
4037000000 8.916320e-001 -3.120636e+001 7.224449e-006 4.013842e+001 1.450007e-005 -1.028076e+002 7.879657e-001 -1.575359e+002
4037500000 8.917292e-001 -3.166648e+001 5.753068e-006 1.730568e+002 9.557650e-006 1.552156e+002 7.873964e-001 -1.582735e+002
4038000000 8.916368e-001 -3.212226e+001 8.911359e-006 -1.072642e+002 1.295281e-005 -1.718083e+002 7.867839e-001 -1.590094e+002
4038500000 8.917370e-001 -3.257959e+001 1.218694e-005 1.768143e+002 5.385886e-006 -1.679525e+002 7.861658e-001 -1.597517e+002
4039000000 8.916184e-001 -3.304670e+001 6.923252e-006 8.653401e+000 1.608412e-005 -1.221091e+002 7.854935e-001 -1.604886e+002
4039500000 8.918088e-001 -3.350045e+001 9.282407e-006 1.131897e+002 1.608647e-005 -9.860798e+001 7.848262e-001 -1.612236e+002
4040000000 8.918228e-001 -3.395463e+001 8.924196e-006 -1.182978e+002 1.525210e-005 -1.173503e+002 7.842513e-001 -1.619632e+002
4040500000 8.920864e-001 -3.440649e+001 8.217464e-007 1.354522e+002 5.708172e-006 -9.273830e+001 7.835585e-001 -1.626922e+002
4041000000 8.921980e-001 -3.485968e+001 1.165893e-005 1.743734e+002 1.349006e-005 -5.210644e+001 7.829307e-001 -1.634256e+002
4041500000 8.923247e-001 -3.531483e+001 8.411068e-006 -1.696055e+002 3.635674e-006 -2.197176e+001 7.823187e-001 -1.641668e+002
4042000000 8.923096e-001 -3.577404e+001 1.618954e-005 -1.688916e+002 4.797708e-006 1.713998e+002 7.817045e-001 -1.648931e+002
4042500000 8.923022e-001 -3.624365e+001 1.749290e-005 1.080039e+002 1.558664e-005 -7.630708e+001 7.810282e-001 -1.656252e+002
4043000000 8.923314e-001 -3.669815e+001 5.565484e-006 -1.574865e+002 8.955792e-007 1.615163e+002 7.803796e-001 -1.663651e+002
4043500000 8.924794e-001 -3.716805e+001 1.715075e-006 -3.759531e+001 1.954620e-005 -1.569439e+002 7.797909e-001 -1.670999e+002
4044000000 8.924652e-001 -3.761797e+001 4.705432e-006 -4.464040e+000 5.612258e-006 -1.648678e+002 7.792388e-001 -1.678303e+002
4044500000 8.925983e-001 -3.807492e+001 1.270623e-005 -5.870751e+001 6.720902e-006 -3.720170e+001 7.786589e-001 -1.685676e+002
4045000000 8.927249e-001 -3.853855e+001 1.627867e-005 -1.304217e+002 1.335118e-005 -8.551176e+001 7.780527e-001 -1.692938e+002
4045500000 8.929693e-001 -3.898317e+001 9.550746e-006 -8.320946e+001 2.113665e-006 -1.753885e+002 7.773394e-001 -1.700220e+002
4046000000 8.930587e-001 -3.944394e+001 2.918613e-006 -1.211607e+002 8.398003e-006 -5.059620e+001 7.767534e-001 -1.707547e+002
4046500000 8.929893e-001 -3.989595e+001 6.715307e-006 1.193243e+002 5.188051e-006 -8.823682e+001 7.761325e-001 -1.714805e+002
4047000000 8.929376e-001 -4.035537e+001 1.737170e-005 1.668866e+002 5.956004e-006 -1.488513e+002 7.754078e-001 -1.722104e+002
4047500000 8.929176e-001 -4.081430e+001 1.596880e-005 -6.912178e+001 1.275680e-005 2.909790e+001 7.748603e-001 -1.729391e+002
4048000000 8.931854e-001 -4.127745e+001 9.148387e-006 5.911728e+001 8.314199e-006 1.146019e+002 7.743667e-001 -1.736608e+002
4048500000 8.932136e-001 -4.173763e+001 5.581587e-006 -1.700048e+002 1.074504e-005 -1.259268e+002 7.736276e-001 -1.743931e+002
4049000000 8.933017e-001 -4.219729e+001 7.045300e-006 -1.634084e+002 4.610431e-006 -1.656341e+002 7.728513e-001 -1.751077e+002
4049500000 8.935040e-001 -4.265854e+001 1.453891e-005 -7.837437e+001 8.569104e-006 1.383921e+002 7.722263e-001 -1.758337e+002
4050000000 8.936310e-001 -4.311076e+001 1.290789e-005 -1.330784e+002 6.593724e-006 -3.533727e+001 7.716840e-001 -1.765548e+002
4050500000 8.938082e-001 -4.357785e+001 9.368401e-006 -1.149458e+002 1.541863e-005 1.619907e+002 7.711942e-001 -1.772835e+002
4051000000 8.940915e-001 -4.403163e+001 1.371841e-005 1.668999e+002 4.441762e-006 1.746777e+002 7.705787e-001 -1.780121e+002
4051500000 8.940893e-001 -4.448774e+001 2.670540e-005 -1.093317e+002 1.322873e-005 -1.248504e+002 7.697670e-001 -1.787290e+002
4052000000 8.941364e-001 -4.495243e+001 1.963384e-005 1.745074e+002 1.521645e-005 2.639087e+001 7.693088e-001 -1.794509e+002
4052500000 8.942816e-001 -4.540744e+001 7.813926e-006 -9.043858e+001 9.385401e-006 -1.687803e+002 7.685541e-001 1.798231e+002
4053000000 8.943836e-001 -4.587449e+001 1.175713e-005 1.770080e+002 5.046428e-006 -9.499623e+001 7.681022e-001 1.790928e+002
4053500000 8.944916e-001 -4.633333e+001 8.293182e-006 -1.267468e+002 5.488572e-006 -1.261703e+002 7.675465e-001 1.783851e+002
4054000000 8.946473e-001 -4.678490e+001 7.572185e-006 -1.061541e+002 5.911276e-006 -1.618172e+002 7.669336e-001 1.776710e+002
4054500000 8.948194e-001 -4.723635e+001 3.605516e-005 -1.699254e+002 1.442315e-005 -6.586755e+001 7.663794e-001 1.769416e+002
4055000000 8.948966e-001 -4.769477e+001 2.652337e-006 -6.887498e+001 4.657479e-006 1.221117e+002 7.657979e-001 1.762334e+002
4055500000 8.950289e-001 -4.815162e+001 9.457744e-006 1.589782e+002 4.046050e-006 1.913745e+001 7.652013e-001 1.755049e+002
4056000000 8.951484e-001 -4.861147e+001 8.187391e-006 3.502005e+001 1.029917e-005 1.465541e+002 7.645977e-001 1.747937e+002
4056500000 8.953584e-001 -4.906593e+001 3.956548e-006 5.085447e+001 4.251495e-006 1.404281e+002 7.640676e-001 1.740703e+002
4057000000 8.952824e-001 -4.953633e+001 8.273942e-006 -9.001746e+001 9.106349e-006 -1.661071e+002 7.635077e-001 1.733685e+002
4057500000 8.955348e-001 -4.998794e+001 3.627056e-006 5.291779e+001 3.676440e-006 7.751912e+001 7.629660e-001 1.726466e+002
4058000000 8.957866e-001 -5.045505e+001 1.832977e-005 -1.089013e+002 1.456010e-005 1.543071e+002 7.623430e-001 1.719330e+002
4058500000 8.959787e-001 -5.090676e+001 5.286522e-006 -6.534087e+000 7.191614e-006 -1.103967e+002 7.617911e-001 1.712110e+002
4059000000 8.960665e-001 -5.136633e+001 1.560899e-006 9.939530e+001 5.257892e-006 8.378829e+001 7.613410e-001 1.704951e+002
4059500000 8.963385e-001 -5.182013e+001 3.483404e-006 1.243136e+002 1.032816e-005 -1.560148e+002 7.609032e-001 1.697792e+002
4060000000 8.964610e-001 -5.228356e+001 6.645154e-006 1.143110e+002 4.413078e-006 -8.851942e+001 7.603448e-001 1.690659e+002
4060500000 8.965645e-001 -5.274430e+001 6.458404e-006 -1.034807e+002 2.961347e-006 1.609708e+002 7.598611e-001 1.683433e+002
4061000000 8.968673e-001 -5.320791e+001 2.440782e-005 -1.235692e+002 6.097349e-006 6.584051e+001 7.591906e-001 1.676319e+002
4061500000 8.971545e-001 -5.367038e+001 1.951672e-005 -1.559041e+002 1.936229e-005 6.006650e+001 7.586460e-001 1.669286e+002
4062000000 8.971977e-001 -5.412808e+001 1.648726e-006 1.363132e+002 5.066453e-006 -1.421807e+002 7.582049e-001 1.662071e+002
4062500000 8.973599e-001 -5.458260e+001 1.195987e-006 -9.596562e+001 1.420796e-005 -1.237264e+002 7.575886e-001 1.654930e+002
4063000000 8.975151e-001 -5.504699e+001 5.666131e-006 3.368129e+001 9.204706e-006 -1.924173e+001 7.571456e-001 1.647783e+002
4063500000 8.976477e-001 -5.550763e+001 6.319002e-006 -1.603352e+002 6.069995e-006 -1.163003e+002 7.565372e-001 1.640707e+002
4064000000 8.978359e-001 -5.596679e+001 8.751036e-006 -1.140320e+002 1.092556e-005 -1.743076e+002 7.560108e-001 1.633561e+002
4064500000 8.979964e-001 -5.642905e+001 7.542656e-006 -1.746928e+002 1.544542e-005 -2.829846e+001 7.555015e-001 1.626507e+002
4065000000 8.982242e-001 -5.688286e+001 9.919715e-006 5.438473e+001 9.574125e-006 1.581816e+002 7.550775e-001 1.619392e+002
4065500000 8.983675e-001 -5.734538e+001 3.476554e-006 -5.565244e+001 7.046782e-006 5.543058e+001 7.546430e-001 1.612206e+002
4066000000 8.986654e-001 -5.780353e+001 8.809971e-006 1.744911e+002 4.335409e-006 -7.900312e+001 7.540065e-001 1.605141e+002
4066500000 8.988733e-001 -5.826695e+001 9.095395e-006 -1.231509e+002 8.619134e-006 7.446341e+001 7.536370e-001 1.598082e+002
4067000000 8.991019e-001 -5.871709e+001 1.448184e-005 1.714994e+002 1.861637e-005 -1.694615e+002 7.531876e-001 1.590986e+002
4067500000 8.992895e-001 -5.918304e+001 3.609929e-006 -3.837703e+001 3.883034e-006 1.615975e+002 7.527345e-001 1.583944e+002
4068000000 8.994723e-001 -5.964557e+001 7.995811e-006 -1.630049e+002 2.651676e-006 1.401285e+002 7.521925e-001 1.576875e+002
4068500000 8.996266e-001 -6.010487e+001 9.266748e-006 1.492203e+002 9.525602e-006 -5.911483e+000 7.518167e-001 1.569744e+002
4069000000 8.998561e-001 -6.056781e+001 8.279550e-006 -6.334068e+001 7.824232e-006 -1.356320e+002 7.512670e-001 1.562639e+002
4069500000 8.999544e-001 -6.103139e+001 1.188785e-005 1.584946e+002 3.997632e-006 1.237599e+002 7.508116e-001 1.555543e+002
4070000000 9.001257e-001 -6.149323e+001 1.879503e-005 -1.331364e+002 8.565960e-006 -1.334649e+002 7.504863e-001 1.548403e+002
4070500000 9.004571e-001 -6.195761e+001 1.671863e-006 -1.266988e+002 8.554290e-006 -1.259883e+002 7.499555e-001 1.541344e+002
4071000000 9.005088e-001 -6.242038e+001 9.885212e-006 -1.582851e+002 7.786525e-006 -5.482478e+001 7.495215e-001 1.534209e+002
4071500000 9.006763e-001 -6.288079e+001 4.603246e-006 -6.646404e+001 2.150350e-006 1.736875e+002 7.490678e-001 1.527185e+002
4072000000 9.009134e-001 -6.333858e+001 6.570263e-006 -9.629862e+001 3.865702e-006 1.423378e+002 7.486212e-001 1.520051e+002
4072500000 9.011422e-001 -6.379831e+001 1.187932e-005 1.391908e+002 5.673749e-006 1.490167e+002 7.481700e-001 1.512892e+002
4073000000 9.012857e-001 -6.425898e+001 4.720872e-006 1.712602e+002 1.104200e-006 -1.103699e+002 7.477077e-001 1.505828e+002
4073500000 9.015511e-001 -6.472173e+001 1.106462e-005 1.573845e+002 9.713846e-006 1.621187e+002 7.474358e-001 1.498725e+002
4074000000 9.017777e-001 -6.518507e+001 1.592592e-005 1.549397e+002 3.437863e-006 -5.268405e+001 7.470548e-001 1.491621e+002
4074500000 9.020830e-001 -6.564642e+001 1.432616e-005 1.139775e+002 1.069128e-005 -1.793694e+002 7.467052e-001 1.484618e+002
4075000000 9.021965e-001 -6.611423e+001 6.247280e-006 1.612226e+002 4.310099e-006 1.509514e+002 7.463399e-001 1.477551e+002
4075500000 9.023771e-001 -6.657959e+001 7.529169e-006 4.039471e+001 1.497917e-005 -7.190034e+001 7.457547e-001 1.470533e+002
4076000000 9.027076e-001 -6.704749e+001 3.708015e-006 1.326241e+002 1.481790e-005 -9.498936e+001 7.454585e-001 1.463485e+002
4076500000 9.028450e-001 -6.751276e+001 1.280262e-005 -1.680659e+002 7.567084e-006 -1.518324e+002 7.450766e-001 1.456368e+002
4077000000 9.030457e-001 -6.797807e+001 7.354372e-006 1.547555e+002 4.182640e-006 1.042840e+002 7.446712e-001 1.449281e+002
4077500000 9.033043e-001 -6.843842e+001 1.133234e-005 -1.535581e+002 8.995857e-006 -1.384776e+002 7.442893e-001 1.442131e+002
