!Agilent Technologies,N5230A,MY46401289,A.07.50.67
!Agilent N5230A: A.07.50.67
!Date: Tuesday, January 05, 2021 01:20:09
!Correction: S11(Full 2 Port(1,2)) 
!S21(Full 2 Port(1,2)) 
!S12(Full 2 Port(1,2)) 
!S22(Full 2 Port(1,2)) 
!S2P File: Measurements: S11, S21, S12, S22:
# Hz S  MA   R 50
5131199861.4427 8.981151e-001 1.898367e+001 2.782482e-004 -1.309017e+002 2.755774e-004 -1.290523e+002 8.158033e-001 -9.902911e+001
5131201093.96 8.980904e-001 1.898324e+001 2.787045e-004 -1.318635e+002 2.735202e-004 -1.299168e+002 8.158061e-001 -9.902625e+001
5131202326.4773 8.980842e-001 1.898242e+001 2.776603e-004 -1.319198e+002 2.812114e-004 -1.305543e+002 8.157269e-001 -9.903049e+001
5131203558.9946 8.981344e-001 1.897792e+001 2.734076e-004 -1.294799e+002 2.807580e-004 -1.286892e+002 8.159138e-001 -9.903727e+001
5131204791.5119 8.981034e-001 1.897639e+001 2.769528e-004 -1.312762e+002 2.723731e-004 -1.310123e+002 8.158048e-001 -9.903532e+001
5131206024.0293 8.981429e-001 1.897760e+001 2.667984e-004 -1.317942e+002 2.723713e-004 -1.308843e+002 8.157538e-001 -9.903503e+001
5131207256.5466 8.981140e-001 1.897530e+001 2.785495e-004 -1.297089e+002 2.731560e-004 -1.299084e+002 8.158652e-001 -9.903702e+001
5131208489.0639 8.980723e-001 1.897322e+001 2.836531e-004 -1.297859e+002 2.714709e-004 -1.308588e+002 8.159022e-001 -9.903896e+001
5131209721.5812 8.980685e-001 1.897030e+001 2.710410e-004 -1.299696e+002 2.825183e-004 -1.298122e+002 8.158247e-001 -9.904382e+001
5131210954.0985 8.980983e-001 1.896411e+001 2.734381e-004 -1.313453e+002 2.821871e-004 -1.298889e+002 8.157915e-001 -9.904555e+001
5131212186.6159 8.981026e-001 1.896863e+001 2.782501e-004 -1.303633e+002 2.832106e-004 -1.310137e+002 8.158910e-001 -9.904855e+001
5131213419.1332 8.980418e-001 1.896716e+001 2.780318e-004 -1.323346e+002 2.734227e-004 -1.304661e+002 8.159009e-001 -9.905214e+001
5131214651.6505 8.981776e-001 1.896485e+001 2.714315e-004 -1.309819e+002 2.806561e-004 -1.308013e+002 8.157821e-001 -9.904952e+001
5131215884.1678 8.981479e-001 1.896671e+001 2.823094e-004 -1.329184e+002 2.691646e-004 -1.330772e+002 8.158091e-001 -9.904871e+001
5131217116.6851 8.980967e-001 1.896146e+001 2.711787e-004 -1.313275e+002 2.679680e-004 -1.316169e+002 8.158963e-001 -9.905412e+001
5131218349.2025 8.980938e-001 1.896081e+001 2.715379e-004 -1.324767e+002 2.676227e-004 -1.290021e+002 8.158447e-001 -9.905233e+001
5131219581.7198 8.980840e-001 1.895739e+001 2.732998e-004 -1.316659e+002 2.809732e-004 -1.291943e+002 8.158354e-001 -9.905400e+001
5131220814.2371 8.981348e-001 1.896294e+001 2.793737e-004 -1.292621e+002 2.685409e-004 -1.317113e+002 8.157876e-001 -9.905957e+001
5131222046.7544 8.981271e-001 1.896335e+001 2.814965e-004 -1.290748e+002 2.815873e-004 -1.317283e+002 8.158932e-001 -9.906331e+001
5131223279.2717 8.980810e-001 1.895531e+001 2.750749e-004 -1.294439e+002 2.812582e-004 -1.307979e+002 8.158134e-001 -9.906213e+001
5131224511.7891 8.980648e-001 1.895575e+001 2.821403e-004 -1.300673e+002 2.775788e-004 -1.285654e+002 8.159285e-001 -9.906453e+001
5131225744.3064 8.980895e-001 1.895847e+001 2.838429e-004 -1.320786e+002 2.762383e-004 -1.315734e+002 8.159118e-001 -9.906521e+001
5131226976.8237 8.981153e-001 1.895540e+001 2.756331e-004 -1.299182e+002 2.751893e-004 -1.285845e+002 8.158033e-001 -9.906137e+001
5131228209.341 8.981108e-001 1.895597e+001 2.808052e-004 -1.305495e+002 2.774138e-004 -1.310483e+002 8.159280e-001 -9.907156e+001
5131229441.8583 8.981131e-001 1.895117e+001 2.796008e-004 -1.304373e+002 2.909459e-004 -1.304519e+002 8.158920e-001 -9.907255e+001
5131230674.3757 8.980691e-001 1.895295e+001 2.703728e-004 -1.305436e+002 2.782914e-004 -1.309947e+002 8.158824e-001 -9.907610e+001
5131231906.893 8.981232e-001 1.894954e+001 2.755257e-004 -1.314439e+002 2.792446e-004 -1.273528e+002 8.160170e-001 -9.907848e+001
5131233139.4103 8.981352e-001 1.894640e+001 2.776499e-004 -1.313179e+002 2.712531e-004 -1.296506e+002 8.158309e-001 -9.907965e+001
5131234371.9276 8.980781e-001 1.894548e+001 2.785825e-004 -1.301497e+002 2.743152e-004 -1.298236e+002 8.159054e-001 -9.908051e+001
5131235604.4449 8.981218e-001 1.894587e+001 2.752161e-004 -1.313431e+002 2.787178e-004 -1.293468e+002 8.158521e-001 -9.908574e+001
5131236836.9623 8.980398e-001 1.894472e+001 2.772933e-004 -1.301026e+002 2.768029e-004 -1.299397e+002 8.158337e-001 -9.908222e+001
5131238069.4796 8.980051e-001 1.894486e+001 2.753283e-004 -1.324473e+002 2.793166e-004 -1.322049e+002 8.158371e-001 -9.908256e+001
5131239301.9969 8.980823e-001 1.894327e+001 2.724706e-004 -1.304044e+002 2.746231e-004 -1.295960e+002 8.159143e-001 -9.908258e+001
5131240534.5142 8.980581e-001 1.893955e+001 2.754850e-004 -1.317458e+002 2.778084e-004 -1.305603e+002 8.159592e-001 -9.908372e+001
5131241767.0315 8.981104e-001 1.894368e+001 2.787859e-004 -1.313095e+002 2.833403e-004 -1.297869e+002 8.158990e-001 -9.909296e+001
5131242999.5489 8.981233e-001 1.893996e+001 2.723508e-004 -1.321835e+002 2.785851e-004 -1.307969e+002 8.158590e-001 -9.909468e+001
5131244232.0662 8.980888e-001 1.894053e+001 2.730171e-004 -1.318464e+002 2.845649e-004 -1.300817e+002 8.159295e-001 -9.909719e+001
5131245464.5835 8.980328e-001 1.894422e+001 2.775132e-004 -1.337042e+002 2.780019e-004 -1.307219e+002 8.158647e-001 -9.909331e+001
5131246697.1008 8.980629e-001 1.893643e+001 2.717489e-004 -1.330246e+002 2.834079e-004 -1.320337e+002 8.158741e-001 -9.909745e+001
5131247929.6181 8.980371e-001 1.893203e+001 2.833863e-004 -1.315398e+002 2.730452e-004 -1.323626e+002 8.158789e-001 -9.910432e+001
5131249162.1355 8.980993e-001 1.893328e+001 2.761978e-004 -1.328765e+002 2.774473e-004 -1.299093e+002 8.159468e-001 -9.909642e+001
5131250394.6528 8.980083e-001 1.893313e+001 2.744300e-004 -1.343170e+002 2.867849e-004 -1.303953e+002 8.158653e-001 -9.910092e+001
5131251627.1701 8.981321e-001 1.893196e+001 2.786854e-004 -1.310953e+002 2.730184e-004 -1.281129e+002 8.158751e-001 -9.909745e+001
5131252859.6874 8.981192e-001 1.893531e+001 2.807335e-004 -1.327387e+002 2.762310e-004 -1.301132e+002 8.159119e-001 -9.910574e+001
5131254092.2047 8.980762e-001 1.892575e+001 2.834627e-004 -1.313717e+002 2.759900e-004 -1.305360e+002 8.158958e-001 -9.910672e+001
5131255324.722 8.980287e-001 1.892834e+001 2.767980e-004 -1.308361e+002 2.774431e-004 -1.297505e+002 8.159288e-001 -9.911409e+001
5131256557.2394 8.980936e-001 1.892394e+001 2.764249e-004 -1.325497e+002 2.771513e-004 -1.288462e+002 8.158594e-001 -9.911030e+001
5131257789.7567 8.980897e-001 1.892630e+001 2.724248e-004 -1.317527e+002 2.626198e-004 -1.299710e+002 8.158216e-001 -9.911395e+001
5131259022.274 8.980700e-001 1.892371e+001 2.792372e-004 -1.325560e+002 2.810130e-004 -1.295898e+002 8.159350e-001 -9.911601e+001
5131260254.7913 8.981121e-001 1.892317e+001 2.778791e-004 -1.318972e+002 2.774242e-004 -1.296495e+002 8.159049e-001 -9.911424e+001
5131261487.3086 8.979962e-001 1.892399e+001 2.827763e-004 -1.333599e+002 2.765954e-004 -1.292859e+002 8.159273e-001 -9.911662e+001
5131262719.826 8.981573e-001 1.892409e+001 2.748238e-004 -1.317868e+002 2.768346e-004 -1.320434e+002 8.158701e-001 -9.912063e+001
5131263952.3433 8.982033e-001 1.892109e+001 2.862252e-004 -1.305642e+002 2.824506e-004 -1.315637e+002 8.158812e-001 -9.912217e+001
5131265184.8606 8.980794e-001 1.892142e+001 2.742268e-004 -1.299997e+002 2.893782e-004 -1.290904e+002 8.158418e-001 -9.912260e+001
5131266417.3779 8.980942e-001 1.891493e+001 2.761243e-004 -1.308564e+002 2.804641e-004 -1.312915e+002 8.159488e-001 -9.912891e+001
5131267649.8952 8.981500e-001 1.891555e+001 2.746302e-004 -1.300473e+002 2.819841e-004 -1.302290e+002 8.160650e-001 -9.912718e+001
5131268882.4126 8.981535e-001 1.891142e+001 2.837112e-004 -1.303887e+002 2.849042e-004 -1.307816e+002 8.159443e-001 -9.912269e+001
5131270114.9299 8.980553e-001 1.891755e+001 2.882165e-004 -1.306851e+002 2.755607e-004 -1.291786e+002 8.159491e-001 -9.912888e+001
5131271347.4472 8.980973e-001 1.891472e+001 2.785900e-004 -1.327327e+002 2.806584e-004 -1.303925e+002 8.159781e-001 -9.912917e+001
5131272579.9645 8.980617e-001 1.891246e+001 2.760328e-004 -1.321437e+002 2.876568e-004 -1.281263e+002 8.159392e-001 -9.913866e+001
5131273812.4818 8.981037e-001 1.891349e+001 2.819700e-004 -1.316154e+002 2.805804e-004 -1.307577e+002 8.159128e-001 -9.913698e+001
5131275044.9992 8.980433e-001 1.890917e+001 2.851264e-004 -1.300782e+002 2.789659e-004 -1.309177e+002 8.159390e-001 -9.914091e+001
5131276277.5165 8.980495e-001 1.890598e+001 2.830872e-004 -1.306665e+002 2.779740e-004 -1.321390e+002 8.159533e-001 -9.914131e+001
5131277510.0338 8.980852e-001 1.891098e+001 2.787278e-004 -1.308942e+002 2.753161e-004 -1.289451e+002 8.159939e-001 -9.913705e+001
5131278742.5511 8.979986e-001 1.890836e+001 2.828452e-004 -1.308987e+002 2.767604e-004 -1.298849e+002 8.160124e-001 -9.914429e+001
5131279975.0684 8.979775e-001 1.890638e+001 2.806381e-004 -1.317478e+002 2.870615e-004 -1.318092e+002 8.160079e-001 -9.914218e+001
5131281207.5858 8.980597e-001 1.890123e+001 2.768085e-004 -1.319643e+002 2.800587e-004 -1.305357e+002 8.159094e-001 -9.914904e+001
5131282440.1031 8.980457e-001 1.890325e+001 2.827932e-004 -1.306136e+002 2.836476e-004 -1.321275e+002 8.159809e-001 -9.914998e+001
5131283672.6204 8.980637e-001 1.890398e+001 2.777305e-004 -1.307854e+002 2.878800e-004 -1.302126e+002 8.159239e-001 -9.915269e+001
5131284905.1377 8.980591e-001 1.889922e+001 2.787525e-004 -1.320947e+002 2.764433e-004 -1.311862e+002 8.159735e-001 -9.915774e+001
5131286137.655 8.979504e-001 1.889913e+001 2.839096e-004 -1.306477e+002 2.826404e-004 -1.287008e+002 8.159803e-001 -9.915759e+001
5131287370.1724 8.980825e-001 1.889709e+001 2.831365e-004 -1.311544e+002 2.826819e-004 -1.307327e+002 8.159052e-001 -9.915736e+001
5131288602.6897 8.980607e-001 1.889826e+001 2.798676e-004 -1.300394e+002 2.867185e-004 -1.289410e+002 8.159304e-001 -9.915705e+001
5131289835.207 8.981220e-001 1.889317e+001 2.799484e-004 -1.320276e+002 2.752148e-004 -1.288540e+002 8.158959e-001 -9.915906e+001
5131291067.7243 8.981355e-001 1.889182e+001 2.811650e-004 -1.319582e+002 2.763453e-004 -1.299946e+002 8.159060e-001 -9.916557e+001
5131292300.2416 8.980374e-001 1.889669e+001 2.945306e-004 -1.334840e+002 2.868392e-004 -1.309897e+002 8.159975e-001 -9.916757e+001
5131293532.759 8.980501e-001 1.889362e+001 2.786232e-004 -1.310462e+002 2.865987e-004 -1.296892e+002 8.159173e-001 -9.916335e+001
5131294765.2763 8.980924e-001 1.888661e+001 2.734504e-004 -1.333587e+002 2.867665e-004 -1.302031e+002 8.160217e-001 -9.916541e+001
5131295997.7936 8.981448e-001 1.889289e+001 2.880916e-004 -1.317290e+002 2.876713e-004 -1.307917e+002 8.158482e-001 -9.916554e+001
5131297230.3109 8.979473e-001 1.888998e+001 2.827108e-004 -1.306183e+002 2.881105e-004 -1.297312e+002 8.159851e-001 -9.917282e+001
5131298462.8282 8.980759e-001 1.888629e+001 2.823651e-004 -1.312320e+002 2.856299e-004 -1.288374e+002 8.159652e-001 -9.917322e+001
5131299695.3456 8.980192e-001 1.888935e+001 2.776498e-004 -1.307162e+002 2.900116e-004 -1.306647e+002 8.159441e-001 -9.917322e+001
5131300927.8629 8.980845e-001 1.888298e+001 2.805295e-004 -1.304893e+002 2.749200e-004 -1.309956e+002 8.160581e-001 -9.917226e+001
5131302160.3802 8.980458e-001 1.888648e+001 2.818165e-004 -1.321757e+002 2.870654e-004 -1.297440e+002 8.159778e-001 -9.917986e+001
5131303392.8975 8.980178e-001 1.888253e+001 2.843965e-004 -1.322259e+002 2.775980e-004 -1.296952e+002 8.159924e-001 -9.917784e+001
5131304625.4148 8.979611e-001 1.888286e+001 2.907796e-004 -1.308743e+002 2.756359e-004 -1.301812e+002 8.159038e-001 -9.917910e+001
5131305857.9322 8.980339e-001 1.888445e+001 2.856820e-004 -1.329021e+002 2.835203e-004 -1.302053e+002 8.159313e-001 -9.918648e+001
5131307090.4495 8.980489e-001 1.887941e+001 2.876624e-004 -1.312445e+002 2.813336e-004 -1.317824e+002 8.159914e-001 -9.918433e+001
5131308322.9668 8.980210e-001 1.887662e+001 2.902666e-004 -1.311947e+002 2.783909e-004 -1.301639e+002 8.158885e-001 -9.918910e+001
5131309555.4841 8.980928e-001 1.887592e+001 2.745033e-004 -1.322922e+002 2.795838e-004 -1.301382e+002 8.159398e-001 -9.919510e+001
5131310788.0014 8.980384e-001 1.887446e+001 2.767860e-004 -1.318378e+002 2.799589e-004 -1.324567e+002 8.159665e-001 -9.918967e+001
5131312020.5188 8.980110e-001 1.887521e+001 2.833523e-004 -1.299829e+002 2.771851e-004 -1.305623e+002 8.160424e-001 -9.919731e+001
5131313253.0361 8.980007e-001 1.887488e+001 2.904412e-004 -1.315708e+002 2.810865e-004 -1.320231e+002 8.159574e-001 -9.919466e+001
5131314485.5534 8.978829e-001 1.887001e+001 2.770035e-004 -1.327287e+002 2.885121e-004 -1.291061e+002 8.159854e-001 -9.918942e+001
5131315718.0707 8.979701e-001 1.886525e+001 2.875355e-004 -1.322980e+002 2.828801e-004 -1.311780e+002 8.160105e-001 -9.920060e+001
5131316950.588 8.980061e-001 1.887042e+001 2.748548e-004 -1.321925e+002 2.770162e-004 -1.306109e+002 8.159423e-001 -9.919371e+001
5131318183.1054 8.980593e-001 1.886704e+001 2.880758e-004 -1.315887e+002 2.794751e-004 -1.307629e+002 8.160716e-001 -9.919799e+001
5131319415.6227 8.980312e-001 1.886624e+001 2.879683e-004 -1.290017e+002 2.777705e-004 -1.294451e+002 8.160592e-001 -9.919826e+001
5131320648.14 8.979887e-001 1.886700e+001 2.786464e-004 -1.322830e+002 2.799621e-004 -1.314313e+002 8.160167e-001 -9.920908e+001
5131321880.6573 8.980293e-001 1.886588e+001 2.837495e-004 -1.307384e+002 2.907375e-004 -1.306841e+002 8.159552e-001 -9.920825e+001
5131323113.1746 8.980080e-001 1.886726e+001 2.879353e-004 -1.324783e+002 2.834714e-004 -1.304436e+002 8.159431e-001 -9.920577e+001
5131324345.692 8.980305e-001 1.886388e+001 2.816811e-004 -1.313101e+002 2.832409e-004 -1.305315e+002 8.160802e-001 -9.920836e+001
5131325578.2093 8.979975e-001 1.886616e+001 2.739115e-004 -1.299457e+002 2.829587e-004 -1.314764e+002 8.160795e-001 -9.921035e+001
5131326810.7266 8.979986e-001 1.885927e+001 2.882745e-004 -1.322431e+002 2.815854e-004 -1.314287e+002 8.159708e-001 -9.921378e+001
5131328043.2439 8.979548e-001 1.886243e+001 2.847767e-004 -1.319516e+002 2.811603e-004 -1.325764e+002 8.160810e-001 -9.921449e+001
5131329275.7612 8.980005e-001 1.885699e+001 2.873554e-004 -1.301137e+002 2.870790e-004 -1.293950e+002 8.160008e-001 -9.921696e+001
5131330508.2785 8.979925e-001 1.885789e+001 2.863114e-004 -1.311350e+002 2.767880e-004 -1.310847e+002 8.160783e-001 -9.921941e+001
5131331740.7959 8.980302e-001 1.885407e+001 2.791943e-004 -1.300469e+002 2.820885e-004 -1.314239e+002 8.159864e-001 -9.921917e+001
5131332973.3132 8.979661e-001 1.885641e+001 2.878672e-004 -1.303826e+002 2.920983e-004 -1.305365e+002 8.160736e-001 -9.921865e+001
5131334205.8305 8.979895e-001 1.885636e+001 2.839988e-004 -1.314192e+002 2.782143e-004 -1.278800e+002 8.160134e-001 -9.922543e+001
5131335438.3478 8.979849e-001 1.885518e+001 2.860129e-004 -1.311271e+002 2.747753e-004 -1.294324e+002 8.160564e-001 -9.922910e+001
5131336670.8651 8.980223e-001 1.885243e+001 2.896388e-004 -1.306209e+002 2.867968e-004 -1.302364e+002 8.159703e-001 -9.923239e+001
5131337903.3825 8.980053e-001 1.884951e+001 2.864087e-004 -1.314681e+002 2.828053e-004 -1.307710e+002 8.160905e-001 -9.922672e+001
5131339135.8998 8.979699e-001 1.885028e+001 2.864473e-004 -1.328841e+002 2.810377e-004 -1.304882e+002 8.160644e-001 -9.922950e+001
5131340368.4171 8.979518e-001 1.885043e+001 2.889034e-004 -1.315314e+002 2.831055e-004 -1.323676e+002 8.159520e-001 -9.923627e+001
5131341600.9344 8.980071e-001 1.884955e+001 2.889906e-004 -1.329493e+002 2.801880e-004 -1.290198e+002 8.160250e-001 -9.924119e+001
5131342833.4517 8.980542e-001 1.884877e+001 2.837055e-004 -1.297006e+002 2.835188e-004 -1.299543e+002 8.160431e-001 -9.923612e+001
5131344065.9691 8.979928e-001 1.884704e+001 2.776929e-004 -1.328768e+002 2.880751e-004 -1.309498e+002 8.160315e-001 -9.923869e+001
5131345298.4864 8.980163e-001 1.884488e+001 2.838358e-004 -1.322094e+002 2.877480e-004 -1.316963e+002 8.160605e-001 -9.923885e+001
5131346531.0037 8.980801e-001 1.884173e+001 2.840420e-004 -1.319774e+002 2.934029e-004 -1.326172e+002 8.160158e-001 -9.924304e+001
5131347763.521 8.980331e-001 1.884227e+001 2.936347e-004 -1.331959e+002 2.830285e-004 -1.312294e+002 8.160576e-001 -9.924472e+001
5131348996.0383 8.980775e-001 1.884164e+001 2.817305e-004 -1.310215e+002 2.786022e-004 -1.298976e+002 8.160759e-001 -9.924620e+001
5131350228.5557 8.980307e-001 1.883889e+001 2.862463e-004 -1.303930e+002 2.837244e-004 -1.302188e+002 8.161170e-001 -9.925175e+001
5131351461.073 8.980263e-001 1.883936e+001 2.864790e-004 -1.336237e+002 2.836907e-004 -1.309180e+002 8.161133e-001 -9.925211e+001
5131352693.5903 8.980773e-001 1.883672e+001 2.795649e-004 -1.307386e+002 2.791318e-004 -1.313857e+002 8.161419e-001 -9.924602e+001
5131353926.1076 8.979472e-001 1.884088e+001 2.895564e-004 -1.317827e+002 2.934084e-004 -1.313049e+002 8.161500e-001 -9.925088e+001
5131355158.6249 8.980523e-001 1.883092e+001 2.923923e-004 -1.308251e+002 2.896326e-004 -1.299948e+002 8.160758e-001 -9.926089e+001
5131356391.1423 8.980323e-001 1.883183e+001 2.916171e-004 -1.346122e+002 2.893533e-004 -1.293180e+002 8.160951e-001 -9.926281e+001
5131357623.6596 8.980858e-001 1.883221e+001 2.898495e-004 -1.313478e+002 2.869142e-004 -1.298756e+002 8.160133e-001 -9.926127e+001
5131358856.1769 8.980534e-001 1.882963e+001 2.809680e-004 -1.307153e+002 2.904902e-004 -1.315378e+002 8.160883e-001 -9.926200e+001
5131360088.6942 8.979601e-001 1.882820e+001 2.828152e-004 -1.325022e+002 2.936495e-004 -1.307399e+002 8.161425e-001 -9.926347e+001
5131361321.2115 8.980041e-001 1.882926e+001 2.749671e-004 -1.305048e+002 2.793062e-004 -1.309987e+002 8.160931e-001 -9.926306e+001
5131362553.7289 8.980044e-001 1.882662e+001 2.850999e-004 -1.322536e+002 2.758536e-004 -1.294880e+002 8.160016e-001 -9.926826e+001
5131363786.2462 8.980209e-001 1.882778e+001 2.866558e-004 -1.315948e+002 2.810236e-004 -1.312357e+002 8.160189e-001 -9.926832e+001
5131365018.7635 8.980193e-001 1.882655e+001 2.823788e-004 -1.315146e+002 2.799254e-004 -1.314071e+002 8.160608e-001 -9.926896e+001
5131366251.2808 8.980734e-001 1.882581e+001 2.871885e-004 -1.324406e+002 2.864883e-004 -1.279103e+002 8.160294e-001 -9.927233e+001
5131367483.7981 8.980696e-001 1.881750e+001 2.758309e-004 -1.302643e+002 2.949377e-004 -1.287439e+002 8.161160e-001 -9.927429e+001
5131368716.3155 8.979785e-001 1.882214e+001 2.834257e-004 -1.301221e+002 2.870187e-004 -1.296931e+002 8.160624e-001 -9.928027e+001
5131369948.8328 8.979273e-001 1.881868e+001 2.847077e-004 -1.316806e+002 2.977060e-004 -1.315818e+002 8.160949e-001 -9.927439e+001
5131371181.3501 8.979887e-001 1.882008e+001 2.811402e-004 -1.317076e+002 2.836023e-004 -1.312570e+002 8.159855e-001 -9.928341e+001
5131372413.8674 8.980437e-001 1.881288e+001 2.879717e-004 -1.310471e+002 2.841259e-004 -1.296158e+002 8.160199e-001 -9.928352e+001
5131373646.3847 8.979887e-001 1.882064e+001 2.799015e-004 -1.327930e+002 2.848150e-004 -1.312886e+002 8.160915e-001 -9.927934e+001
5131374878.9021 8.980846e-001 1.881853e+001 2.792693e-004 -1.335005e+002 2.876533e-004 -1.306526e+002 8.160922e-001 -9.928807e+001
5131376111.4194 8.980333e-001 1.881376e+001 2.890207e-004 -1.304497e+002 2.910799e-004 -1.293480e+002 8.160273e-001 -9.928915e+001
5131377343.9367 8.980088e-001 1.881238e+001 2.857927e-004 -1.328526e+002 2.860962e-004 -1.304200e+002 8.160707e-001 -9.928906e+001
5131378576.454 8.980436e-001 1.880931e+001 2.870664e-004 -1.335800e+002 2.817357e-004 -1.284838e+002 8.160619e-001 -9.928728e+001
5131379808.9713 8.980677e-001 1.881015e+001 2.945606e-004 -1.324166e+002 2.801924e-004 -1.293730e+002 8.160618e-001 -9.929308e+001
5131381041.4887 8.980228e-001 1.880755e+001 2.884038e-004 -1.311965e+002 2.943369e-004 -1.311862e+002 8.161252e-001 -9.929372e+001
5131382274.006 8.980314e-001 1.880680e+001 2.786557e-004 -1.299071e+002 2.859712e-004 -1.301547e+002 8.161032e-001 -9.929814e+001
5131383506.5233 8.980222e-001 1.880298e+001 2.919828e-004 -1.325382e+002 2.910458e-004 -1.310445e+002 8.161067e-001 -9.929778e+001
