!Agilent Technologies,N5230A,MY46401289,A.07.50.67
!Agilent N5230A: A.07.50.67
!Date: Tuesday, January 05, 2021 01:24:38
!Correction: S11(Full 2 Port(1,2)) 
!S21(Full 2 Port(1,2)) 
!S12(Full 2 Port(1,2)) 
!S22(Full 2 Port(1,2)) 
!S2P File: Measurements: S11, S21, S12, S22:
# Hz S  MA   R 50
6858127015.1269 9.032368e-001 -1.659369e+002 1.008328e-005 -6.736436e+001 2.399833e-006 -1.406694e+002 8.053441e-001 1.694210e+001
6858134923.1701 9.030375e-001 -1.659337e+002 3.979926e-006 6.958330e+000 1.179894e-005 1.181236e+001 8.050811e-001 1.693319e+001
6858142831.2132 9.032802e-001 -1.659515e+002 7.992153e-006 6.684885e+001 9.754363e-006 5.593605e+000 8.053143e-001 1.693357e+001
6858150739.2563 9.033254e-001 -1.659469e+002 1.014580e-005 -8.057180e-001 1.146825e-005 -6.289459e+001 8.051725e-001 1.690464e+001
6858158647.2994 9.032280e-001 -1.659578e+002 8.264764e-006 1.108420e+002 8.687484e-006 -4.909684e+001 8.052130e-001 1.689959e+001
6858166555.3426 9.032120e-001 -1.659650e+002 1.611924e-005 -8.890332e+001 5.071719e-006 -1.381282e+002 8.050988e-001 1.689000e+001
6858174463.3857 9.029844e-001 -1.659762e+002 1.907273e-006 -1.787641e+002 1.772955e-005 -3.122071e+001 8.051810e-001 1.686250e+001
6858182371.4288 9.031956e-001 -1.659863e+002 1.256802e-005 -4.075404e+001 9.200247e-006 -6.672334e+001 8.051284e-001 1.685406e+001
6858190279.4719 9.032424e-001 -1.659879e+002 4.784870e-006 6.036586e+001 1.291671e-005 -1.148676e+002 8.053544e-001 1.684668e+001
6858198187.5151 9.032295e-001 -1.659884e+002 5.030957e-006 5.910933e+001 1.069708e-005 4.128415e+001 8.053195e-001 1.682880e+001
6858206095.5582 9.030867e-001 -1.659946e+002 8.853049e-006 2.361436e+001 1.263675e-005 2.877159e+001 8.051739e-001 1.683020e+001
6858214003.6013 9.031508e-001 -1.660031e+002 6.507948e-006 1.640477e+001 6.071614e-006 6.308019e+001 8.051491e-001 1.681380e+001
6858221911.6445 9.030548e-001 -1.660198e+002 1.001516e-005 -3.489717e+001 1.127875e-005 6.900717e+001 8.052515e-001 1.680323e+001
6858229819.6876 9.032851e-001 -1.660216e+002 1.363503e-005 6.759544e+001 7.154539e-006 -3.567348e+001 8.053976e-001 1.678695e+001
6858237727.7307 9.032092e-001 -1.660287e+002 1.293971e-005 -4.084742e+001 1.232793e-005 -1.466514e+000 8.051767e-001 1.677859e+001
6858245635.7738 9.031640e-001 -1.660379e+002 4.656004e-006 -9.367371e+001 8.010193e-006 4.398122e+001 8.053153e-001 1.677030e+001
6858253543.817 9.031187e-001 -1.660402e+002 1.939848e-005 5.318964e-001 1.896214e-005 3.282924e+001 8.050907e-001 1.674554e+001
6858261451.8601 9.031652e-001 -1.660463e+002 4.349726e-006 -1.911506e+001 7.544385e-006 -2.827548e+001 8.051610e-001 1.676073e+001
6858269359.9032 9.032573e-001 -1.660532e+002 1.206806e-005 8.864349e+001 1.133912e-005 -5.729931e+001 8.051331e-001 1.673801e+001
6858277267.9463 9.031557e-001 -1.660678e+002 7.321834e-006 3.597303e+001 4.948198e-006 1.991066e+001 8.051377e-001 1.672689e+001
6858285175.9895 9.032258e-001 -1.660738e+002 8.919385e-006 3.783775e+001 1.140059e-005 6.583069e+000 8.051738e-001 1.670029e+001
6858293084.0326 9.031293e-001 -1.660677e+002 4.652031e-006 -9.845296e+001 6.783476e-006 -3.648489e+001 8.052137e-001 1.668408e+001
6858300992.0757 9.032279e-001 -1.660905e+002 7.430673e-006 -3.116692e+000 9.188656e-006 -2.435023e+001 8.050976e-001 1.666833e+001
6858308900.1188 9.030684e-001 -1.661013e+002 9.469894e-006 -3.968279e+001 1.877477e-005 -1.571009e+001 8.051944e-001 1.666808e+001
6858316808.162 9.031286e-001 -1.660963e+002 6.748102e-006 -1.276116e+001 8.114079e-006 7.204182e+001 8.051167e-001 1.666150e+001
6858324716.2051 9.032841e-001 -1.661034e+002 1.069135e-005 -5.836446e+001 1.440128e-005 -8.819386e+000 8.051677e-001 1.665541e+001
6858332624.2482 9.031763e-001 -1.661033e+002 4.744284e-006 8.087645e+001 6.432066e-006 6.624062e+001 8.051012e-001 1.663952e+001
6858340532.2914 9.032240e-001 -1.661153e+002 3.940532e-006 -1.682405e+002 3.991287e-006 -1.831783e+001 8.050824e-001 1.663286e+001
6858348440.3345 9.033808e-001 -1.661278e+002 3.722354e-006 9.121802e+001 3.199737e-006 -1.467132e+001 8.051739e-001 1.661063e+001
6858356348.3776 9.032900e-001 -1.661290e+002 3.581708e-006 -1.761075e+001 1.175621e-005 -1.877773e+001 8.052059e-001 1.659954e+001
6858364256.4207 9.031527e-001 -1.661342e+002 9.790359e-006 -1.973064e+001 1.115512e-005 -5.156562e+001 8.051103e-001 1.659341e+001
6858372164.4639 9.033056e-001 -1.661467e+002 2.125930e-006 -3.697311e+001 1.329381e-005 -3.051283e+001 8.050706e-001 1.656994e+001
6858380072.507 9.033498e-001 -1.661500e+002 5.901395e-006 1.020556e+002 6.007776e-006 1.323916e+001 8.053213e-001 1.656081e+001
6858387980.5501 9.031854e-001 -1.661584e+002 1.318388e-005 2.822686e+001 5.586413e-006 -2.303387e+000 8.051915e-001 1.656080e+001
6858395888.5932 9.032902e-001 -1.661573e+002 2.140080e-005 1.066979e+001 1.756053e-005 -1.199804e+001 8.052046e-001 1.655700e+001
6858403796.6364 9.031631e-001 -1.661720e+002 6.906530e-006 -1.331339e+002 7.867506e-006 -9.710122e+001 8.053212e-001 1.653524e+001
6858411704.6795 9.032553e-001 -1.661767e+002 6.338705e-006 3.137712e+000 1.127918e-005 -1.508595e+001 8.052307e-001 1.650998e+001
6858419612.7226 9.031335e-001 -1.661774e+002 7.157744e-006 -2.237590e+001 2.201964e-006 -2.968129e+001 8.051925e-001 1.650417e+001
6858427520.7657 9.034255e-001 -1.661990e+002 2.630919e-006 -1.373837e+001 5.447400e-006 3.964664e+000 8.051955e-001 1.649312e+001
6858435428.8089 9.031808e-001 -1.661970e+002 4.894877e-006 -2.216947e+001 9.795698e-006 -8.758291e+001 8.052308e-001 1.648479e+001
6858443336.852 9.032034e-001 -1.662024e+002 8.449677e-006 2.749332e+000 6.841531e-006 3.671337e+001 8.052103e-001 1.647036e+001
6858451244.8951 9.031773e-001 -1.662214e+002 9.255235e-006 9.086919e+001 8.130101e-006 2.349996e+000 8.052146e-001 1.646663e+001
6858459152.9383 9.031250e-001 -1.662204e+002 4.964103e-006 -1.093448e+000 8.315655e-006 -3.989222e+001 8.052570e-001 1.643751e+001
6858467060.9814 9.031006e-001 -1.662170e+002 1.277645e-005 7.729018e+001 4.332149e-006 4.947625e+001 8.052953e-001 1.644424e+001
6858474969.0245 9.031898e-001 -1.662461e+002 7.834136e-006 1.233147e+001 1.281542e-005 -5.253120e+000 8.052122e-001 1.643088e+001
6858482877.0676 9.031531e-001 -1.662421e+002 1.398491e-005 -2.532135e+001 1.169801e-005 -2.115439e+001 8.051693e-001 1.641887e+001
6858490785.1108 9.032806e-001 -1.662378e+002 7.256966e-006 -2.608883e+001 4.623957e-007 9.721000e+001 8.053072e-001 1.641269e+001
6858498693.1539 9.031597e-001 -1.662562e+002 3.274881e-006 -6.059327e+000 5.500320e-006 -4.582113e+001 8.051528e-001 1.638489e+001
6858506601.197 9.030522e-001 -1.662596e+002 5.748262e-006 1.761898e+002 1.175625e-005 8.775037e+001 8.052346e-001 1.636969e+001
6858514509.2401 9.031647e-001 -1.662668e+002 5.665070e-006 -1.233985e+001 5.071037e-006 -1.127123e+002 8.050892e-001 1.636997e+001
6858522417.2833 9.032733e-001 -1.662791e+002 3.500094e-006 9.019665e+000 9.611207e-006 -8.076498e+000 8.050553e-001 1.636353e+001
6858530325.3264 9.033025e-001 -1.662855e+002 5.468141e-006 4.688538e+000 8.091333e-006 -5.578827e+001 8.052341e-001 1.634842e+001
6858538233.3695 9.032912e-001 -1.662944e+002 6.754964e-006 -1.073290e+001 9.576398e-006 -2.481719e+001 8.053325e-001 1.632268e+001
6858546141.4126 9.031902e-001 -1.662954e+002 1.218463e-005 2.148942e+001 9.416134e-006 -1.000816e+002 8.051355e-001 1.632480e+001
6858554049.4558 9.032506e-001 -1.663035e+002 4.764866e-006 -1.096856e+002 1.014565e-005 3.938014e+000 8.053642e-001 1.629372e+001
6858561957.4989 9.031543e-001 -1.663165e+002 1.128125e-005 1.426322e+001 7.486561e-006 -2.108728e+001 8.052955e-001 1.629035e+001
6858569865.542 9.032773e-001 -1.663186e+002 2.583161e-006 -1.257588e+001 5.814990e-006 4.311042e+001 8.051562e-001 1.628662e+001
6858577773.5852 9.031701e-001 -1.663285e+002 6.128662e-006 1.470761e+002 8.771845e-006 3.071070e+001 8.050467e-001 1.628102e+001
6858585681.6283 9.031626e-001 -1.663418e+002 8.568223e-006 -4.278773e+001 7.014452e-006 2.772003e+001 8.051680e-001 1.627181e+001
6858593589.6714 9.033191e-001 -1.663403e+002 3.550498e-006 -7.385767e+001 1.171120e-005 -2.671656e+001 8.051678e-001 1.625260e+001
6858601497.7145 9.031245e-001 -1.663492e+002 5.915272e-006 -1.163868e+001 8.452541e-006 3.342916e+000 8.050477e-001 1.624418e+001
6858609405.7577 9.033597e-001 -1.663443e+002 1.111974e-005 -4.096779e+000 4.539107e-006 1.012253e+002 8.052911e-001 1.622704e+001
6858617313.8008 9.032589e-001 -1.663610e+002 1.402938e-005 4.643097e+000 7.690423e-006 -6.485821e+001 8.051592e-001 1.621011e+001
6858625221.8439 9.031665e-001 -1.663639e+002 1.737857e-005 6.352945e+000 7.259531e-006 -8.483076e+001 8.052681e-001 1.620220e+001
6858633129.887 9.032728e-001 -1.663748e+002 7.969470e-006 6.310527e+001 8.067872e-006 -1.285371e+001 8.051562e-001 1.618535e+001
6858641037.9302 9.034973e-001 -1.663887e+002 1.153482e-005 1.094977e+001 1.493758e-005 -1.986807e+001 8.050395e-001 1.617551e+001
6858648945.9733 9.031556e-001 -1.663768e+002 1.286176e-005 -2.086172e+001 6.061111e-006 -3.593585e+000 8.051233e-001 1.617060e+001
6858656854.0164 9.032334e-001 -1.663950e+002 1.601960e-005 1.819913e+001 3.210190e-006 -6.404429e+001 8.051202e-001 1.614478e+001
6858664762.0595 9.033058e-001 -1.663988e+002 8.252128e-006 -7.173090e+000 1.316265e-005 3.970171e+000 8.050984e-001 1.615257e+001
6858672670.1027 9.033622e-001 -1.664046e+002 2.349908e-006 5.651470e+001 1.313110e-005 -2.607659e+001 8.051425e-001 1.614656e+001
6858680578.1458 9.033212e-001 -1.664199e+002 1.629322e-005 -1.295634e+001 1.019767e-005 5.875319e+001 8.052556e-001 1.612632e+001
6858688486.1889 9.033476e-001 -1.664196e+002 1.032777e-006 9.515778e+000 3.542709e-006 1.631908e+001 8.049727e-001 1.609826e+001
6858696394.2321 9.032934e-001 -1.664297e+002 1.658420e-005 -2.589654e+001 8.381379e-006 -7.599281e+001 8.052524e-001 1.609176e+001
6858704302.2752 9.033622e-001 -1.664373e+002 2.500270e-006 8.241658e+001 6.631544e-006 6.641051e+001 8.050254e-001 1.608273e+001
6858712210.3183 9.031626e-001 -1.664527e+002 2.131982e-005 -1.417224e+000 4.765930e-006 2.536086e+001 8.051688e-001 1.607666e+001
6858720118.3614 9.032686e-001 -1.664569e+002 2.155594e-006 1.417412e+002 7.003797e-006 -1.329155e+001 8.052372e-001 1.607459e+001
6858728026.4046 9.034430e-001 -1.664556e+002 7.655267e-006 -7.476006e+001 1.774211e-005 -3.857922e+000 8.051746e-001 1.606248e+001
6858735934.4477 9.033219e-001 -1.664624e+002 6.697847e-006 -4.950089e+001 7.550694e-006 1.040448e+002 8.050922e-001 1.603543e+001
6858743842.4908 9.031805e-001 -1.664638e+002 2.753510e-006 -9.103104e+001 1.253862e-005 4.520427e+000 8.050714e-001 1.601939e+001
6858751750.5339 9.032966e-001 -1.664811e+002 8.973102e-006 -7.173890e+000 1.255643e-005 -1.571377e+002 8.052480e-001 1.602388e+001
6858759658.5771 9.033236e-001 -1.664905e+002 8.487441e-006 4.522748e+000 5.594403e-006 -1.374714e+000 8.052911e-001 1.599818e+001
6858767566.6202 9.033371e-001 -1.664892e+002 1.278900e-005 -4.346674e+001 9.010369e-006 8.077421e+001 8.053232e-001 1.598125e+001
6858775474.6633 9.032891e-001 -1.664930e+002 1.183473e-005 -6.366315e+001 1.303789e-005 -4.735028e+000 8.051244e-001 1.596548e+001
6858783382.7064 9.034178e-001 -1.664961e+002 8.049817e-006 -3.186909e+001 6.269487e-006 -6.991942e+001 8.051229e-001 1.596526e+001
6858791290.7496 9.031809e-001 -1.665185e+002 3.719586e-006 1.082485e+002 1.535367e-005 -4.526740e+001 8.053398e-001 1.594092e+001
6858799198.7927 9.031702e-001 -1.665098e+002 2.815751e-006 -8.301529e+001 3.727577e-006 -1.695055e+002 8.049773e-001 1.595262e+001
6858807106.8358 9.033879e-001 -1.665316e+002 1.995503e-006 1.228898e+002 5.688637e-006 5.681537e+001 8.050002e-001 1.593167e+001
6858815014.879 9.032624e-001 -1.665340e+002 5.881356e-006 -4.869363e+000 9.767723e-006 -1.743034e+001 8.051494e-001 1.591785e+001
6858822922.9221 9.033494e-001 -1.665487e+002 3.062378e-006 1.334668e+002 1.112823e-005 -2.177731e+001 8.050344e-001 1.590872e+001
6858830830.9652 9.031418e-001 -1.665477e+002 1.310470e-005 2.981398e+001 6.050916e-006 -2.956773e+001 8.052152e-001 1.589420e+001
6858838739.0083 9.032115e-001 -1.665412e+002 1.592227e-005 -1.185576e+001 7.736067e-006 8.609271e+001 8.052260e-001 1.588339e+001
6858846647.0515 9.033566e-001 -1.665689e+002 7.894570e-006 -1.488928e+002 3.813412e-006 8.029276e+001 8.051823e-001 1.588679e+001
6858854555.0946 9.031914e-001 -1.665696e+002 5.292826e-006 -2.764640e+001 2.216762e-006 1.435103e+001 8.052406e-001 1.585314e+001
6858862463.1377 9.032467e-001 -1.665715e+002 3.279787e-006 -7.998676e+001 9.730789e-006 1.178318e+001 8.051564e-001 1.586120e+001
6858870371.1808 9.034719e-001 -1.665761e+002 1.161374e-005 7.461083e+001 1.173832e-006 1.673757e+001 8.052427e-001 1.582252e+001
6858878279.224 9.033072e-001 -1.665913e+002 1.155557e-005 2.786320e+001 1.907589e-005 3.131371e+000 8.050899e-001 1.582487e+001
6858886187.2671 9.033398e-001 -1.665931e+002 7.288559e-006 6.698652e+000 3.767409e-006 9.216427e+001 8.053457e-001 1.581039e+001
6858894095.3102 9.032555e-001 -1.665925e+002 6.603786e-006 1.198889e+002 2.197477e-006 -2.982822e+001 8.051099e-001 1.579778e+001
6858902003.3533 9.034064e-001 -1.666028e+002 1.733045e-005 2.414997e+001 1.677930e-005 -1.784245e+001 8.052992e-001 1.579055e+001
6858909911.3965 9.031953e-001 -1.666141e+002 2.662659e-006 -1.851970e+001 1.624835e-005 -1.385162e+001 8.052240e-001 1.577069e+001
6858917819.4396 9.034424e-001 -1.666129e+002 7.625500e-006 1.430156e+001 2.044051e-006 3.976307e+001 8.051022e-001 1.575575e+001
6858925727.4827 9.033940e-001 -1.666271e+002 6.752280e-006 6.889056e+001 1.194000e-005 -1.542009e+002 8.053449e-001 1.574824e+001
6858933635.5259 9.032234e-001 -1.666328e+002 1.275898e-005 -2.905697e+000 1.265127e-005 -1.576204e+001 8.050777e-001 1.574674e+001
6858941543.569 9.033551e-001 -1.666453e+002 1.129465e-005 2.153606e+001 5.979104e-006 -1.250923e+002 8.051859e-001 1.572177e+001
6858949451.6121 9.032972e-001 -1.666496e+002 1.427438e-005 4.255155e+001 9.648670e-006 7.089542e+001 8.051240e-001 1.571515e+001
6858957359.6552 9.032468e-001 -1.666525e+002 1.586205e-005 -4.433138e+001 3.050283e-006 5.851915e+001 8.051039e-001 1.570437e+001
6858965267.6984 9.032625e-001 -1.666689e+002 8.925769e-006 6.012046e+001 1.132476e-005 -1.639080e+001 8.051004e-001 1.569104e+001
6858973175.7415 9.032295e-001 -1.666605e+002 9.069202e-006 -2.312400e+000 1.623308e-006 -7.090146e+001 8.052799e-001 1.568254e+001
6858981083.7846 9.034081e-001 -1.666813e+002 2.670817e-006 -5.819623e+001 6.309259e-006 1.029584e+002 8.051964e-001 1.568679e+001
6858988991.8277 9.033468e-001 -1.666920e+002 5.229454e-006 -1.025818e+002 1.180941e-005 -1.092224e+002 8.053610e-001 1.564567e+001
6858996899.8709 9.033061e-001 -1.666915e+002 5.545811e-006 1.742836e+002 1.152113e-005 4.470046e+001 8.051420e-001 1.563637e+001
6859004807.914 9.032193e-001 -1.666959e+002 3.873893e-006 8.799320e+001 1.184038e-005 -4.054348e+001 8.052884e-001 1.563106e+001
6859012715.9571 9.033822e-001 -1.667075e+002 7.788041e-006 -8.392034e+000 1.645100e-005 -2.397809e+001 8.050253e-001 1.562144e+001
6859020624.0002 9.033775e-001 -1.667201e+002 1.001453e-005 -5.770160e+001 1.076039e-005 3.407265e+001 8.051870e-001 1.562332e+001
6859028532.0434 9.033425e-001 -1.667116e+002 1.127887e-005 -1.550470e+001 6.838618e-006 1.611818e+001 8.051822e-001 1.560498e+001
6859036440.0865 9.034301e-001 -1.667190e+002 6.791315e-006 1.513431e+001 9.365264e-006 4.848851e+000 8.052953e-001 1.558687e+001
6859044348.1296 9.033692e-001 -1.667413e+002 8.099161e-006 -6.928436e+001 1.550709e-005 -2.424532e+000 8.051487e-001 1.556829e+001
6859052256.1728 9.033645e-001 -1.667309e+002 1.839125e-005 7.512463e+001 1.907702e-006 -1.611897e+002 8.051155e-001 1.556632e+001
6859060164.2159 9.033341e-001 -1.667544e+002 1.342653e-005 6.141990e+001 2.941678e-006 -1.187012e+002 8.052809e-001 1.555620e+001
6859068072.259 9.035134e-001 -1.667614e+002 6.148021e-006 7.581330e+001 8.266004e-006 -1.333768e+002 8.051794e-001 1.554580e+001
6859075980.3021 9.034113e-001 -1.667656e+002 2.053672e-005 2.339610e+001 6.534904e-006 -1.463696e+002 8.051299e-001 1.553245e+001
6859083888.3453 9.033322e-001 -1.667596e+002 4.243648e-006 3.730736e+001 8.055932e-006 -9.243283e+001 8.050784e-001 1.551937e+001
6859091796.3884 9.034315e-001 -1.667869e+002 1.250704e-006 -2.856002e+001 7.547977e-006 -4.091827e+001 8.051195e-001 1.551605e+001
6859099704.4315 9.034145e-001 -1.667868e+002 1.551327e-005 -1.506844e+001 5.890075e-006 -2.094597e+001 8.051979e-001 1.549675e+001
6859107612.4746 9.034360e-001 -1.667849e+002 5.120522e-006 -3.440377e+001 5.918661e-006 -1.692483e+002 8.052291e-001 1.548000e+001
6859115520.5178 9.035307e-001 -1.667876e+002 1.022693e-005 2.989583e+001 1.143434e-005 8.031267e+000 8.050364e-001 1.546946e+001
6859123428.5609 9.033633e-001 -1.668009e+002 8.161443e-006 1.530052e+001 1.042807e-005 2.705490e+001 8.051225e-001 1.546239e+001
6859131336.604 9.033136e-001 -1.668174e+002 8.153068e-006 1.863562e+001 7.677907e-006 -1.629726e+002 8.051361e-001 1.545488e+001
6859139244.6471 9.033953e-001 -1.668206e+002 8.376282e-006 5.951073e+001 3.317145e-006 5.382394e+001 8.052353e-001 1.542209e+001
6859147152.6903 9.034474e-001 -1.668221e+002 1.298541e-005 -1.964545e+001 9.145126e-006 3.151871e+001 8.051712e-001 1.543088e+001
6859155060.7334 9.035836e-001 -1.668294e+002 9.333209e-006 2.576712e+001 5.723314e-006 3.115934e+001 8.051082e-001 1.541122e+001
6859162968.7765 9.034339e-001 -1.668322e+002 8.919168e-006 -1.676352e+000 1.863530e-005 -5.245032e+000 8.050223e-001 1.539664e+001
6859170876.8197 9.033508e-001 -1.668440e+002 8.730181e-006 -2.000705e+001 3.570238e-006 -1.249201e+002 8.052110e-001 1.539100e+001
6859178784.8628 9.034458e-001 -1.668485e+002 1.227267e-005 -7.318736e+001 8.167670e-006 7.916373e+001 8.050643e-001 1.539311e+001
6859186692.9059 9.033192e-001 -1.668482e+002 8.603620e-006 9.530966e+000 7.658513e-006 9.304846e+001 8.050515e-001 1.535948e+001
6859194600.949 9.033052e-001 -1.668640e+002 1.123156e-005 -3.816231e+001 6.820791e-006 -6.177627e+001 8.053001e-001 1.535260e+001
6859202508.9922 9.032125e-001 -1.668695e+002 3.161027e-006 8.015215e+001 1.267347e-005 -3.233781e+001 8.050108e-001 1.533683e+001
6859210417.0353 9.034145e-001 -1.668749e+002 1.266645e-006 7.108656e+001 1.397877e-005 1.230963e+001 8.051373e-001 1.533791e+001
6859218325.0784 9.032617e-001 -1.668828e+002 1.575533e-005 -1.748390e+001 9.266138e-006 1.348804e+001 8.050333e-001 1.531291e+001
6859226233.1215 9.033083e-001 -1.668927e+002 2.394139e-006 -9.839592e+001 9.315149e-006 2.264632e+001 8.051069e-001 1.531054e+001
6859234141.1647 9.035148e-001 -1.668857e+002 1.037208e-005 -4.822558e+001 7.557362e-006 5.066315e+001 8.051587e-001 1.529726e+001
6859242049.2078 9.034439e-001 -1.669027e+002 5.452339e-006 -1.010052e+001 4.214660e-006 9.875157e+001 8.050931e-001 1.527878e+001
6859249957.2509 9.033181e-001 -1.669171e+002 1.963812e-005 2.666366e+000 1.199831e-005 -8.872422e-001 8.050931e-001 1.526801e+001
6859257865.294 9.032723e-001 -1.669223e+002 1.123384e-005 -3.367886e+001 4.355447e-006 4.669431e+001 8.052688e-001 1.528259e+001
6859265773.3372 9.034711e-001 -1.669309e+002 7.262577e-006 1.072640e+002 5.148698e-006 1.185714e+001 8.051986e-001 1.524813e+001
6859273681.3803 9.033108e-001 -1.669456e+002 5.902627e-006 9.769758e+000 7.173358e-006 1.225540e+002 8.051348e-001 1.522945e+001
6859281589.4234 9.033253e-001 -1.669396e+002 1.662629e-005 -1.286190e+001 1.416893e-005 5.465256e+001 8.050085e-001 1.521723e+001
6859289497.4666 9.034256e-001 -1.669488e+002 8.731002e-006 3.284697e+001 9.761723e-006 3.196573e+001 8.050518e-001 1.521270e+001
6859297405.5097 9.033863e-001 -1.669601e+002 2.631990e-006 -4.024551e+001 6.042892e-006 2.718205e+001 8.050399e-001 1.519811e+001
6859305313.5528 9.034154e-001 -1.669576e+002 4.133595e-006 -1.046753e+002 3.259190e-006 -3.827987e+001 8.049951e-001 1.518644e+001
6859313221.5959 9.033993e-001 -1.669764e+002 2.321342e-006 -1.658908e+002 8.378086e-006 -1.696661e+001 8.050140e-001 1.518062e+001
