!Agilent Technologies,N5230A,MY46401289,A.07.50.67
!Agilent N5230A: A.07.50.67
!Date: Tuesday, January 05, 2021 01:17:37
!Correction: S11(Full 2 Port(1,2)) 
!S21(Full 2 Port(1,2)) 
!S12(Full 2 Port(1,2)) 
!S22(Full 2 Port(1,2)) 
!S2P File: Measurements: S11, S21, S12, S22:
# Hz S  MA   R 50
5029808644.6792 9.204212e-001 1.149882e+002 1.458689e-005 -3.078898e+001 9.498151e-006 -2.147384e+001 7.193589e-001 5.710099e+001
5029822551.0986 9.211137e-001 1.147882e+002 1.755703e-005 -2.243885e+001 2.554448e-005 -2.316023e+001 7.193822e-001 5.708255e+001
5029836457.5181 9.210292e-001 1.147736e+002 1.867043e-005 -7.497324e+001 2.212726e-005 -2.027679e+000 7.193319e-001 5.705568e+001
5029850363.9375 9.209540e-001 1.147638e+002 5.354029e-006 -2.056892e+001 2.417608e-005 9.727336e+000 7.193443e-001 5.703539e+001
5029864270.3569 9.209029e-001 1.147391e+002 1.802968e-005 -1.454089e+000 8.108757e-006 -2.408523e+001 7.193581e-001 5.701125e+001
5029878176.7763 9.211003e-001 1.147283e+002 4.612927e-006 -1.076499e+001 1.196840e-005 4.765002e+001 7.193495e-001 5.698463e+001
5029892083.1957 9.210165e-001 1.147201e+002 9.895102e-006 -4.410055e+001 6.110752e-006 2.341044e+001 7.193050e-001 5.696560e+001
5029905989.6151 9.210489e-001 1.146981e+002 2.839727e-005 -1.118377e+001 1.916271e-005 -1.276594e+001 7.192885e-001 5.694821e+001
5029919896.0345 9.210584e-001 1.146954e+002 1.594280e-005 -2.224487e+001 9.683813e-006 4.549776e+001 7.192936e-001 5.692354e+001
5029933802.454 9.210793e-001 1.146882e+002 1.525883e-005 -1.953589e+001 1.612470e-005 -2.232297e+001 7.193699e-001 5.690073e+001
5029947708.8734 9.209881e-001 1.146612e+002 1.114947e-005 3.662285e+001 1.303677e-005 -3.931720e+001 7.192393e-001 5.687801e+001
5029961615.2928 9.208397e-001 1.146538e+002 2.087006e-005 9.070901e+000 1.759135e-005 -3.041068e+001 7.193052e-001 5.685333e+001
5029975521.7122 9.207915e-001 1.146356e+002 1.334760e-005 -1.308273e+000 2.228403e-005 -2.588374e+001 7.192525e-001 5.683549e+001
5029989428.1316 9.209557e-001 1.146255e+002 2.009000e-005 -2.568334e+001 2.381850e-005 -4.577458e+000 7.192990e-001 5.681170e+001
5030003334.551 9.209566e-001 1.146105e+002 1.720282e-005 -4.447937e+001 2.273261e-005 -3.108338e+001 7.193057e-001 5.678919e+001
5030017240.9705 9.211854e-001 1.145920e+002 1.310580e-005 -1.848575e+001 1.771315e-005 -1.994044e+001 7.192510e-001 5.676594e+001
5030031147.3899 9.208820e-001 1.145922e+002 1.993956e-005 6.013863e+000 1.676120e-005 -1.422579e+001 7.192439e-001 5.674198e+001
5030045053.8093 9.210015e-001 1.145812e+002 1.943490e-005 -5.814054e+000 8.624992e-006 -4.308262e+001 7.192082e-001 5.672089e+001
5030058960.2287 9.210586e-001 1.145541e+002 9.664494e-006 -1.784891e+001 1.263730e-005 5.307902e+001 7.192093e-001 5.669728e+001
5030072866.6481 9.210435e-001 1.145513e+002 1.880183e-005 2.968708e+001 1.763297e-005 -9.651383e+000 7.193053e-001 5.667683e+001
5030086773.0675 9.209448e-001 1.145224e+002 2.018347e-005 -2.393917e+001 2.089652e-005 -1.429554e+001 7.192138e-001 5.665476e+001
5030100679.4869 9.210320e-001 1.145199e+002 9.554813e-006 -1.480408e+001 1.821380e-005 7.131113e+000 7.192065e-001 5.663076e+001
5030114585.9064 9.209169e-001 1.145080e+002 1.504783e-005 -4.057741e+001 5.585476e-006 -4.235614e+001 7.191846e-001 5.660433e+001
5030128492.3258 9.210778e-001 1.144946e+002 2.318812e-005 -6.243061e+000 9.756523e-006 -1.230149e+001 7.191932e-001 5.658623e+001
5030142398.7452 9.209676e-001 1.144760e+002 1.495641e-005 -1.414714e+001 8.711227e-006 1.865266e+001 7.191778e-001 5.656200e+001
5030156305.1646 9.209916e-001 1.144673e+002 9.792220e-006 -2.187513e+001 1.417814e-005 2.274586e+001 7.191846e-001 5.654337e+001
5030170211.584 9.210324e-001 1.144615e+002 2.653690e-005 -4.103762e+001 1.717902e-005 2.740954e+001 7.191150e-001 5.651705e+001
5030184118.0034 9.209409e-001 1.144390e+002 2.064340e-005 -5.847808e+000 1.355038e-005 -1.764228e+000 7.191871e-001 5.649149e+001
5030198024.4228 9.209838e-001 1.144244e+002 1.872887e-005 -2.263697e+001 2.267310e-005 -2.362260e+001 7.191802e-001 5.647002e+001
5030211930.8423 9.211711e-001 1.144202e+002 3.079786e-005 -3.193579e+001 1.289639e-005 -2.986092e+001 7.191542e-001 5.644881e+001
5030225837.2617 9.209466e-001 1.144027e+002 1.096597e-005 1.151998e+001 1.654367e-005 9.321865e+000 7.191432e-001 5.642310e+001
5030239743.6811 9.211476e-001 1.143931e+002 1.322115e-005 -3.192933e+001 7.263129e-006 1.680896e+001 7.191405e-001 5.640420e+001
5030253650.1005 9.209008e-001 1.143727e+002 4.143881e-006 -3.648501e+000 2.161994e-005 2.835902e+001 7.191302e-001 5.638214e+001
5030267556.5199 9.210906e-001 1.143559e+002 1.884295e-005 4.338526e+000 1.589688e-005 -9.134100e+000 7.190992e-001 5.635932e+001
5030281462.9393 9.210723e-001 1.143360e+002 1.782062e-005 -2.003976e+000 1.160145e-005 2.193460e+001 7.190689e-001 5.633593e+001
5030295369.3588 9.209757e-001 1.143356e+002 1.621725e-005 3.824498e+001 1.592038e-005 -2.579978e+001 7.191116e-001 5.631483e+001
5030309275.7782 9.209006e-001 1.143134e+002 7.779696e-006 -4.862506e+000 1.708260e-005 -4.447428e+001 7.190862e-001 5.629111e+001
5030323182.1976 9.210628e-001 1.143119e+002 2.100927e-005 -3.718035e+000 6.286243e-006 -8.061221e+000 7.190787e-001 5.626755e+001
5030337088.617 9.210784e-001 1.142870e+002 1.553539e-005 2.039207e+001 1.621029e-005 -1.084541e+001 7.190829e-001 5.624384e+001
5030350995.0364 9.210028e-001 1.142794e+002 1.268855e-005 2.519249e+001 2.142263e-005 -3.007348e+000 7.190299e-001 5.622427e+001
5030364901.4558 9.211032e-001 1.142775e+002 1.614156e-005 7.273113e+000 1.096149e-005 -1.025346e+001 7.190772e-001 5.620274e+001
5030378807.8752 9.210941e-001 1.142597e+002 1.561701e-005 2.942770e+001 2.318064e-005 -2.505490e+001 7.190692e-001 5.617827e+001
5030392714.2947 9.211186e-001 1.142432e+002 2.276470e-005 4.215105e+000 2.130059e-005 -1.289010e+001 7.190607e-001 5.615467e+001
5030406620.7141 9.211168e-001 1.142252e+002 1.869418e-005 -2.553003e+000 1.863892e-005 -1.340333e+001 7.190297e-001 5.613268e+001
5030420527.1335 9.212469e-001 1.142215e+002 2.184436e-005 8.373818e+000 2.377585e-005 -2.949773e+001 7.190843e-001 5.611239e+001
5030434433.5529 9.211197e-001 1.141988e+002 2.465855e-005 -2.350705e+001 1.333571e-005 -2.023500e+001 7.190232e-001 5.609079e+001
5030448339.9723 9.208920e-001 1.141823e+002 1.652290e-005 -1.329883e+001 8.598527e-006 -1.167993e+001 7.190892e-001 5.606784e+001
5030462246.3917 9.211241e-001 1.141662e+002 1.641932e-005 6.967655e+000 1.801403e-005 -3.866748e+001 7.189767e-001 5.604570e+001
5030476152.8112 9.210321e-001 1.141662e+002 1.985628e-005 -3.629028e+001 6.674802e-006 8.838476e+000 7.189744e-001 5.602329e+001
5030490059.2306 9.209276e-001 1.141368e+002 1.889712e-005 3.814327e+001 2.039368e-005 -3.136716e+001 7.190084e-001 5.599910e+001
5030503965.65 9.211217e-001 1.141326e+002 1.539866e-005 -1.173947e+001 1.594699e-005 -4.772951e+001 7.190304e-001 5.597655e+001
5030517872.0694 9.208279e-001 1.141218e+002 1.055174e-005 -2.172646e+001 2.063702e-005 -1.393559e+001 7.190419e-001 5.595372e+001
5030531778.4888 9.209636e-001 1.141039e+002 2.884793e-006 -1.881094e+001 1.535480e-005 -1.975180e+001 7.189695e-001 5.592979e+001
5030545684.9082 9.210579e-001 1.140949e+002 1.425966e-005 -4.019809e+001 1.930381e-005 -1.648019e+001 7.190027e-001 5.590667e+001
5030559591.3276 9.210638e-001 1.140706e+002 1.375865e-005 -3.237459e+001 2.054724e-005 2.570520e+001 7.189745e-001 5.588264e+001
5030573497.7471 9.211678e-001 1.140711e+002 1.243960e-005 4.753301e+001 2.531938e-005 -3.617916e+001 7.189320e-001 5.586453e+001
5030587404.1665 9.209568e-001 1.140554e+002 1.247912e-005 4.073020e-001 1.524404e-005 -1.953694e+001 7.189835e-001 5.584346e+001
5030601310.5859 9.211012e-001 1.140413e+002 6.610593e-006 -2.255637e+001 1.396753e-005 4.607920e+000 7.189112e-001 5.582206e+001
5030615217.0053 9.209808e-001 1.140209e+002 1.176310e-005 1.007722e+001 1.498823e-005 -3.142490e+001 7.188995e-001 5.579872e+001
5030629123.4247 9.210980e-001 1.140227e+002 2.199998e-005 -6.798862e+000 1.729031e-005 -6.045973e+000 7.189240e-001 5.576934e+001
5030643029.8441 9.210877e-001 1.139971e+002 2.443211e-005 -2.415266e+001 5.344662e-006 2.956182e+001 7.189291e-001 5.574976e+001
5030656936.2635 9.210881e-001 1.139909e+002 1.226223e-005 -4.405450e+001 1.880894e-005 -3.805544e+001 7.189357e-001 5.572892e+001
5030670842.683 9.211287e-001 1.139736e+002 2.671010e-005 1.758099e+001 1.659597e-005 1.137934e+001 7.189578e-001 5.570466e+001
5030684749.1024 9.211629e-001 1.139604e+002 1.213659e-005 -2.276737e+001 1.022996e-005 -1.027503e+001 7.189503e-001 5.568627e+001
5030698655.5218 9.210251e-001 1.139443e+002 1.659912e-005 -4.287587e+001 2.183716e-005 -1.472922e+001 7.188987e-001 5.566162e+001
5030712561.9412 9.209952e-001 1.139277e+002 1.718720e-005 -2.233808e+001 1.258037e-005 -6.471111e-001 7.188896e-001 5.563712e+001
5030726468.3606 9.211935e-001 1.139111e+002 1.075267e-005 -2.299572e+001 1.055859e-005 -4.737795e+000 7.188483e-001 5.561452e+001
5030740374.78 9.210343e-001 1.139102e+002 1.389731e-005 -1.427959e+001 1.519849e-005 -3.890134e+001 7.188636e-001 5.559444e+001
5030754281.1995 9.211837e-001 1.138822e+002 3.476395e-005 -1.482819e+001 1.666594e-005 -3.336794e+001 7.188427e-001 5.557398e+001
5030768187.6189 9.209629e-001 1.138785e+002 1.269680e-005 -5.641062e+000 1.891116e-005 -5.062689e+001 7.188702e-001 5.554987e+001
5030782094.0383 9.211770e-001 1.138730e+002 6.021361e-006 1.001707e+001 2.159235e-005 1.643273e+001 7.188641e-001 5.552518e+001
5030796000.4577 9.209633e-001 1.138568e+002 1.626641e-005 -1.819025e+001 2.818990e-005 -2.131968e+001 7.188946e-001 5.550430e+001
5030809906.8771 9.210997e-001 1.138313e+002 2.707227e-005 1.419660e+001 1.825203e-005 4.012105e+001 7.188330e-001 5.548066e+001
5030823813.2965 9.210536e-001 1.138207e+002 9.759231e-006 7.258985e+000 2.219062e-005 1.294165e+001 7.188446e-001 5.545815e+001
5030837719.7159 9.211512e-001 1.138128e+002 1.833305e-005 -5.692037e+000 1.988412e-005 -2.801995e+001 7.188956e-001 5.543692e+001
5030851626.1354 9.212318e-001 1.137890e+002 1.650722e-005 -5.151989e+001 5.857018e-006 -7.110059e+001 7.188346e-001 5.541274e+001
5030865532.5548 9.211940e-001 1.138031e+002 1.643791e-005 -7.566029e+000 1.904217e-005 1.311096e+000 7.188008e-001 5.539334e+001
5030879438.9742 9.211358e-001 1.137692e+002 1.856557e-005 -5.734158e+001 1.398152e-005 3.759983e+000 7.188237e-001 5.536979e+001
5030893345.3936 9.211350e-001 1.137521e+002 1.236254e-005 -8.167583e+001 1.491887e-005 -5.043752e+000 7.187799e-001 5.534533e+001
5030907251.813 9.211445e-001 1.137439e+002 1.255284e-005 -1.004634e+001 1.865455e-005 -2.578450e+001 7.188106e-001 5.532309e+001
5030921158.2324 9.211655e-001 1.137352e+002 1.049789e-005 -2.847348e+001 1.722589e-005 8.703675e+000 7.188112e-001 5.529824e+001
5030935064.6518 9.210492e-001 1.137225e+002 1.887333e-005 -2.523110e+001 2.084838e-005 -8.412215e+000 7.187493e-001 5.527670e+001
5030948971.0713 9.211913e-001 1.137103e+002 1.164481e-005 -1.627103e+001 8.213638e-006 1.774782e+001 7.187779e-001 5.525526e+001
5030962877.4907 9.211280e-001 1.136872e+002 1.000016e-005 3.959070e+001 1.235954e-005 -1.591790e+001 7.188104e-001 5.523585e+001
5030976783.9101 9.211512e-001 1.136869e+002 1.587161e-005 -3.662912e+001 1.211441e-005 -2.210836e+001 7.188091e-001 5.521001e+001
5030990690.3295 9.210131e-001 1.136617e+002 1.347399e-005 -9.597691e+000 2.377744e-005 -4.953031e+000 7.187661e-001 5.518899e+001
5031004596.7489 9.213026e-001 1.136539e+002 1.940059e-005 1.736628e+001 2.924567e-005 -1.358580e+001 7.187338e-001 5.516468e+001
5031018503.1683 9.209805e-001 1.136340e+002 8.787232e-006 -3.707053e+001 1.485445e-005 1.091225e+001 7.187667e-001 5.514354e+001
5031032409.5878 9.213567e-001 1.136255e+002 1.449902e-005 2.178042e+000 9.313549e-006 -1.524784e+001 7.187232e-001 5.512078e+001
5031046316.0072 9.210649e-001 1.136240e+002 1.943549e-005 -7.603592e+000 2.187349e-005 -3.813285e+000 7.187609e-001 5.509935e+001
5031060222.4266 9.211128e-001 1.135999e+002 1.497927e-005 -1.021324e+001 1.648074e-005 -5.224105e+000 7.187604e-001 5.507619e+001
5031074128.846 9.211041e-001 1.135855e+002 2.266442e-005 -3.431841e+000 2.120961e-005 -1.071963e+000 7.187419e-001 5.505479e+001
5031088035.2654 9.213201e-001 1.135626e+002 2.572425e-005 -9.501350e+000 2.115165e-005 3.755176e+000 7.187176e-001 5.503208e+001
5031101941.6848 9.210436e-001 1.135588e+002 2.634807e-005 4.254056e+000 2.321940e-005 -5.455522e+001 7.187204e-001 5.500836e+001
5031115848.1042 9.211302e-001 1.135418e+002 1.410395e-005 -2.099446e+001 1.612678e-005 -2.659488e+001 7.187466e-001 5.498557e+001
5031129754.5237 9.211051e-001 1.135367e+002 1.535846e-005 -1.834410e+001 1.811425e-005 -1.656651e+001 7.187263e-001 5.496115e+001
5031143660.9431 9.211382e-001 1.135214e+002 6.806246e-006 1.346328e+000 2.378135e-005 -1.193414e+001 7.186848e-001 5.493999e+001
5031157567.3625 9.211715e-001 1.135122e+002 2.342264e-005 -3.750113e+001 1.265572e-005 -3.174394e+001 7.187044e-001 5.491635e+001
5031171473.7819 9.210674e-001 1.134938e+002 1.908426e-005 -5.545898e+001 1.035882e-005 -7.807894e+001 7.187111e-001 5.489573e+001
5031185380.2013 9.212254e-001 1.134680e+002 1.580271e-005 -7.862051e+000 1.299883e-005 -7.500762e+000 7.187284e-001 5.487636e+001
5031199286.6207 9.213062e-001 1.134698e+002 1.517275e-005 -2.148007e+001 1.858253e-005 -1.740623e+001 7.186960e-001 5.485202e+001
5031213193.0402 9.212210e-001 1.134546e+002 1.351729e-005 -1.504443e+001 1.772195e-005 -1.471401e+001 7.186832e-001 5.482640e+001
5031227099.4596 9.211562e-001 1.134400e+002 1.626432e-005 -1.797902e+000 1.902622e-005 -2.358935e+001 7.186206e-001 5.480500e+001
5031241005.879 9.211283e-001 1.134339e+002 1.652115e-005 -2.988683e+001 2.131601e-005 3.340759e+000 7.186602e-001 5.478465e+001
5031254912.2984 9.211030e-001 1.134077e+002 2.082364e-005 -6.645493e+001 2.021606e-005 -3.011039e+001 7.185591e-001 5.475967e+001
5031268818.7178 9.211053e-001 1.133985e+002 1.691880e-005 -4.801707e+001 1.343951e-005 1.697490e+001 7.185948e-001 5.473689e+001
5031282725.1372 9.212659e-001 1.133927e+002 1.595848e-005 -2.972900e+000 1.719112e-005 1.839503e+001 7.185862e-001 5.471987e+001
5031296631.5566 9.211054e-001 1.133718e+002 1.143457e-005 -5.027312e+000 1.021884e-005 -5.154741e+001 7.186526e-001 5.469246e+001
5031310537.9761 9.213627e-001 1.133684e+002 8.584888e-006 -1.059896e+002 2.626227e-005 -6.771762e+000 7.186476e-001 5.467514e+001
5031324444.3955 9.212606e-001 1.133464e+002 2.732311e-005 8.733287e+000 2.040722e-005 3.272357e+000 7.186048e-001 5.464873e+001
5031338350.8149 9.210321e-001 1.133326e+002 2.252882e-005 -3.003175e+001 1.799580e-005 5.410489e+000 7.185981e-001 5.462438e+001
5031352257.2343 9.210907e-001 1.133200e+002 2.582499e-005 -4.101457e+000 1.097463e-005 -1.728833e+001 7.185394e-001 5.459875e+001
5031366163.6537 9.211708e-001 1.133085e+002 1.931614e-005 -2.907231e+001 1.445577e-005 -3.777451e+000 7.185602e-001 5.458227e+001
5031380070.0731 9.211366e-001 1.132936e+002 9.608161e-006 -6.504913e+001 1.449947e-005 -5.066394e+001 7.185943e-001 5.456075e+001
5031393976.4925 9.211164e-001 1.132787e+002 1.283815e-005 2.829174e+001 1.451273e-005 6.044615e+000 7.185767e-001 5.453709e+001
5031407882.912 9.213204e-001 1.132685e+002 1.525775e-005 -2.422785e+001 2.003572e-005 -1.662544e+001 7.185852e-001 5.451302e+001
5031421789.3314 9.210041e-001 1.132489e+002 1.143609e-005 3.839079e+000 1.279234e-005 3.707095e+000 7.185689e-001 5.449096e+001
5031435695.7508 9.214127e-001 1.132302e+002 1.438199e-005 -7.491557e+000 1.622102e-005 2.533344e+001 7.185484e-001 5.446917e+001
5031449602.1702 9.212701e-001 1.132236e+002 2.179690e-005 -3.583601e+001 1.100043e-005 -1.763459e+001 7.185311e-001 5.444811e+001
5031463508.5896 9.212077e-001 1.132134e+002 1.356709e-005 -2.570891e+001 2.237769e-005 -3.910240e+001 7.185232e-001 5.442260e+001
5031477415.009 9.211074e-001 1.132012e+002 1.649366e-005 -4.398276e+001 1.784792e-005 7.503994e+000 7.184955e-001 5.439971e+001
5031491321.4285 9.212092e-001 1.131892e+002 1.565420e-005 -1.860936e+000 1.870870e-005 -2.468422e-001 7.185153e-001 5.437775e+001
5031505227.8479 9.211730e-001 1.131749e+002 1.487833e-005 -2.140175e+001 1.580608e-005 2.365757e+000 7.185162e-001 5.435536e+001
5031519134.2673 9.212604e-001 1.131640e+002 7.291741e-006 -1.289241e+002 1.638996e-005 2.972894e+001 7.184821e-001 5.433617e+001
5031533040.6867 9.210278e-001 1.131418e+002 7.541907e-006 -1.221418e+001 1.610310e-005 7.449129e+000 7.184926e-001 5.431256e+001
5031546947.1061 9.212925e-001 1.131416e+002 2.427012e-005 -2.798927e+001 1.039860e-005 1.136864e+001 7.185487e-001 5.428704e+001
5031560853.5255 9.213649e-001 1.131194e+002 1.772115e-005 -9.627941e+000 1.969921e-005 -2.761304e+001 7.184618e-001 5.426393e+001
5031574759.9449 9.212189e-001 1.131118e+002 3.607300e-006 -4.004105e+001 2.217147e-005 -2.281925e+001 7.184933e-001 5.424381e+001
5031588666.3644 9.212374e-001 1.130974e+002 1.660330e-005 7.146330e-001 2.352389e-005 -8.975605e+000 7.185182e-001 5.422243e+001
5031602572.7838 9.213862e-001 1.130780e+002 2.143970e-005 6.005530e+000 1.513673e-005 3.416626e+001 7.184746e-001 5.420201e+001
5031616479.2032 9.212055e-001 1.130702e+002 1.203434e-005 2.595842e+000 7.863810e-006 -1.688843e+001 7.184449e-001 5.417867e+001
5031630385.6226 9.213522e-001 1.130614e+002 1.359225e-005 -1.815350e+001 1.508217e-005 -3.609543e+000 7.184827e-001 5.415241e+001
5031644292.042 9.212101e-001 1.130300e+002 1.718357e-005 -1.547255e+001 1.614333e-005 -2.270941e+001 7.184274e-001 5.413439e+001
5031658198.4614 9.211962e-001 1.130252e+002 2.537981e-005 -1.053432e+001 1.387473e-005 1.975304e+000 7.184295e-001 5.410912e+001
5031672104.8808 9.211392e-001 1.130023e+002 2.604264e-005 7.653599e+000 1.320536e-005 -2.058570e+001 7.184930e-001 5.408836e+001
5031686011.3003 9.212149e-001 1.130114e+002 8.342312e-006 5.695951e+000 1.223115e-005 2.891727e+001 7.184763e-001 5.406271e+001
5031699917.7197 9.212709e-001 1.129852e+002 1.772155e-005 -3.034993e+001 1.103445e-005 3.647912e+000 7.184260e-001 5.404063e+001
5031713824.1391 9.212749e-001 1.129757e+002 1.764223e-005 -3.351337e+001 1.665036e-005 6.318778e+000 7.183952e-001 5.401632e+001
5031727730.5585 9.210244e-001 1.129658e+002 1.836690e-005 1.216145e+001 1.327637e-005 4.515425e+000 7.184025e-001 5.400077e+001
5031741636.9779 9.211209e-001 1.129408e+002 1.108429e-005 3.016835e+001 2.233320e-005 -2.453057e+001 7.184078e-001 5.397243e+001
5031755543.3973 9.211811e-001 1.129211e+002 2.347005e-005 -8.192120e+000 1.218292e-005 -3.508185e+000 7.183969e-001 5.395440e+001
5031769449.8168 9.211989e-001 1.129137e+002 2.886632e-005 -3.545417e+000 1.796459e-005 -2.048258e+001 7.183921e-001 5.392826e+001
5031783356.2362 9.209635e-001 1.129065e+002 1.139893e-005 1.679918e+001 5.446857e-006 -1.100007e+001 7.183840e-001 5.390920e+001
5031797262.6556 9.212428e-001 1.129006e+002 1.173710e-005 -5.054619e+001 2.098234e-005 3.417366e+000 7.183819e-001 5.388438e+001
5031811169.075 9.212151e-001 1.128768e+002 1.553748e-005 8.220211e+000 9.815294e-006 -1.424422e+001 7.184109e-001 5.386111e+001
5031825075.4944 9.213145e-001 1.128712e+002 1.996118e-005 -1.386605e+000 1.844514e-005 -2.498472e+001 7.184020e-001 5.384212e+001
5031838981.9138 9.210631e-001 1.128562e+002 2.145252e-005 -7.454535e+000 2.146768e-005 -2.712032e+001 7.183974e-001 5.381948e+001
5031852888.3332 9.213740e-001 1.128387e+002 2.839233e-006 -2.641915e+001 1.713139e-005 -3.669740e+001 7.183309e-001 5.379354e+001
5031866794.7527 9.212894e-001 1.128315e+002 1.939783e-005 -4.441435e+000 1.800735e-005 1.249588e+001 7.183466e-001 5.377352e+001
5031880701.1721 9.213747e-001 1.128147e+002 5.057498e-006 -5.160984e+001 1.047135e-005 2.027592e+001 7.183242e-001 5.375099e+001
5031894607.5915 9.212175e-001 1.128050e+002 7.546111e-006 -1.629598e-001 1.104984e-005 3.434115e+001 7.183376e-001 5.373021e+001
5031908514.0109 9.211645e-001 1.127905e+002 1.999839e-005 -2.377918e+001 1.318020e-005 -2.890996e+001 7.183115e-001 5.370499e+001
