!Agilent Technologies,N5230A,MY46401289,A.07.50.67
!Agilent N5230A: A.07.50.67
!Date: Tuesday, January 05, 2021 01:07:58
!Correction: S11(Full 2 Port(1,2)) 
!S21(Full 2 Port(1,2)) 
!S12(Full 2 Port(1,2)) 
!S22(Full 2 Port(1,2)) 
!S2P File: Measurements: S11, S21, S12, S22:
# Hz S  MA   R 50
10000000 9.852251e-001 1.698389e+002 1.078343e-004 2.235482e+001 7.239448e-005 -1.418477e+002 9.568419e-001 1.620598e+002
11655625 9.842836e-001 1.682876e+002 2.102558e-005 8.508023e+001 4.544204e-005 -9.458276e+001 9.557213e-001 1.593680e+002
13311250 9.843017e-001 1.667435e+002 2.033537e-005 4.496742e+001 1.270564e-004 7.533365e+001 9.547266e-001 1.566788e+002
14966875 9.834073e-001 1.651497e+002 6.622103e-005 1.063475e+001 6.647923e-005 1.088055e+002 9.540483e-001 1.539321e+002
16622500 9.830459e-001 1.635746e+002 4.508325e-005 -1.401354e+002 3.220419e-005 -1.287703e+002 9.541216e-001 1.512435e+002
18278125 9.833553e-001 1.619929e+002 4.034654e-005 -4.392632e+001 2.812186e-005 9.635890e+001 9.536123e-001 1.484832e+002
19933750 9.833658e-001 1.604113e+002 2.050863e-005 1.729899e+002 4.961797e-005 1.389543e+001 9.534212e-001 1.457387e+002
21589375 9.831821e-001 1.587975e+002 5.657255e-005 2.700593e+001 1.632787e-005 -1.193192e+002 9.532474e-001 1.429840e+002
23245000 9.833467e-001 1.572014e+002 2.912867e-005 -2.206410e+001 5.203704e-005 4.812511e+001 9.532177e-001 1.402378e+002
24900625 9.833918e-001 1.555996e+002 3.313085e-005 -4.440240e+000 2.479812e-005 -3.296881e+001 9.533752e-001 1.374759e+002
26556250 9.835430e-001 1.540076e+002 1.618795e-005 4.521716e+001 6.248516e-005 -1.502909e+002 9.531785e-001 1.347052e+002
28211875 9.835277e-001 1.523984e+002 2.902113e-005 -8.814168e+001 1.979533e-005 -1.055499e+002 9.530932e-001 1.319552e+002
29867500 9.836695e-001 1.507946e+002 7.297736e-005 1.576970e+002 1.078193e-005 -3.277498e-001 9.532712e-001 1.292021e+002
31523125 9.836612e-001 1.491853e+002 3.109376e-005 -1.252712e+002 1.962603e-005 -1.073281e+002 9.532369e-001 1.264465e+002
33178750 9.838870e-001 1.475738e+002 2.178052e-005 -1.154337e+002 5.121945e-005 2.027936e+000 9.534158e-001 1.236832e+002
34834375 9.836679e-001 1.459386e+002 2.022410e-005 -1.330521e+002 2.208230e-005 -1.572496e+002 9.531974e-001 1.209584e+002
36490000 9.834874e-001 1.442713e+002 3.115177e-005 -9.607556e+001 3.348062e-005 3.928232e+001 9.527088e-001 1.182220e+002
38145625 9.829777e-001 1.427404e+002 1.184254e-005 1.098760e+002 2.562476e-005 4.266804e+001 9.531935e-001 1.154524e+002
39801250 9.830626e-001 1.411351e+002 2.544853e-005 -1.492518e+002 2.455878e-005 -1.688593e+002 9.529185e-001 1.127153e+002
41456875 9.830661e-001 1.395264e+002 8.830220e-006 3.779508e+001 1.406319e-005 1.420474e+002 9.528690e-001 1.099814e+002
43112500 9.827454e-001 1.379189e+002 5.292845e-005 -1.228226e+002 3.236333e-005 -8.288860e+001 9.527956e-001 1.072570e+002
44768125 9.826214e-001 1.363063e+002 8.661033e-006 -2.485036e+001 1.423375e-005 -1.981968e+001 9.527965e-001 1.045407e+002
46423750 9.829980e-001 1.346898e+002 2.241921e-004 1.701555e+002 4.570750e-005 3.042607e+001 9.536775e-001 1.018287e+002
48079375 9.833924e-001 1.330984e+002 6.427002e-005 -9.094986e+001 1.451461e-004 1.420724e+002 9.538082e-001 9.908986e+001
49735000 9.830492e-001 1.314576e+002 1.129850e-004 1.403692e+001 2.085896e-005 1.070490e+002 9.539828e-001 9.638816e+001
51390625 9.825785e-001 1.298748e+002 7.532074e-005 -1.636479e+002 1.523487e-004 7.080830e+001 9.540533e-001 9.371309e+001
53046250 9.826868e-001 1.282933e+002 2.055110e-005 -1.341425e+000 5.680636e-005 -1.415264e+001 9.543698e-001 9.099344e+001
54701875 9.821337e-001 1.267109e+002 7.145540e-005 -2.319633e+001 9.440596e-005 -1.231261e+002 9.541931e-001 8.837661e+001
56357500 9.816246e-001 1.251160e+002 9.146152e-005 3.201864e+001 9.778887e-005 -1.075725e+002 9.544774e-001 8.563289e+001
58013125 9.813870e-001 1.235312e+002 5.924696e-005 -1.643746e+002 6.243604e-005 1.600282e+001 9.547558e-001 8.294523e+001
59668750 9.810930e-001 1.219621e+002 2.395329e-005 2.435063e+001 1.655018e-005 8.356342e+001 9.549783e-001 8.026246e+001
61324375 9.806600e-001 1.203526e+002 2.197220e-005 1.494958e+002 4.647492e-005 -1.184910e+002 9.559512e-001 7.761947e+001
62980000 9.800094e-001 1.187851e+002 4.158043e-006 1.004240e+002 5.103011e-005 -9.893985e+001 9.559435e-001 7.497211e+001
64635625 9.798548e-001 1.171958e+002 1.180042e-005 2.619313e+001 5.896334e-005 1.013249e+002 9.567342e-001 7.227840e+001
66291250 9.803854e-001 1.156029e+002 7.829013e-005 -1.236705e+002 1.442670e-004 1.534805e+002 9.570822e-001 6.961684e+001
67946875 9.798663e-001 1.140574e+002 7.096231e-005 8.348242e+001 2.510728e-005 1.586600e+002 9.577778e-001 6.695156e+001
69602500 9.792647e-001 1.124903e+002 2.581023e-005 7.735613e+001 8.499964e-005 3.991376e+001 9.585170e-001 6.430596e+001
71258125 9.788043e-001 1.109063e+002 3.443015e-005 -3.591158e+001 4.352319e-005 -8.117854e+001 9.591862e-001 6.167014e+001
72913750 9.785292e-001 1.093163e+002 2.403416e-005 1.418173e+002 8.998000e-005 -1.418888e+002 9.602472e-001 5.897428e+001
74569375 9.789495e-001 1.077749e+002 4.971787e-005 6.319011e+001 7.621804e-005 -1.627642e+002 9.608940e-001 5.632783e+001
76225000 9.789725e-001 1.062034e+002 7.450766e-005 2.399504e+000 5.187299e-005 -1.462347e+002 9.619951e-001 5.369010e+001
77880625 9.787723e-001 1.046489e+002 4.794854e-005 2.932667e+001 3.803596e-005 -7.446771e+001 9.629664e-001 5.102759e+001
79536250 9.789348e-001 1.030872e+002 4.512026e-005 1.243766e+002 9.275955e-005 1.119486e+002 9.635432e-001 4.837480e+001
81191875 9.783391e-001 1.015030e+002 4.280667e-005 1.195874e+002 4.739371e-005 -1.483397e+002 9.648933e-001 4.569796e+001
82847500 9.783802e-001 9.994804e+001 2.032777e-005 -7.203358e+001 4.828534e-005 1.316516e+002 9.656432e-001 4.304685e+001
84503125 9.779614e-001 9.838109e+001 7.134322e-005 -1.656574e+002 4.454762e-005 1.031224e+002 9.664152e-001 4.037437e+001
86158750 9.783297e-001 9.682225e+001 4.011299e-005 -1.534293e+002 2.933223e-005 -8.176688e+001 9.677735e-001 3.772231e+001
87814375 9.779339e-001 9.524100e+001 5.184100e-005 1.021151e+002 4.421483e-005 4.783364e+001 9.684961e-001 3.504293e+001
89470000 9.784513e-001 9.368603e+001 1.746965e-005 -6.141314e+001 6.105635e-005 -1.096794e+002 9.692688e-001 3.238983e+001
91125625 9.785927e-001 9.212389e+001 2.574395e-005 -2.765397e+001 2.548427e-005 1.213503e+002 9.706517e-001 2.971972e+001
92781250 9.781243e-001 9.055576e+001 1.027385e-004 -7.757076e+001 2.473198e-005 -6.486806e+001 9.713603e-001 2.703305e+001
94436875 9.785291e-001 8.899911e+001 6.364467e-005 -9.747387e-001 3.183512e-005 -8.924889e+001 9.721533e-001 2.436746e+001
96092500 9.785385e-001 8.741940e+001 5.540524e-005 1.289694e+001 3.330906e-005 7.293670e+001 9.728550e-001 2.166631e+001
97748125 9.784852e-001 8.586996e+001 1.537079e-005 3.920541e+001 2.407121e-006 1.594199e+002 9.741008e-001 1.898348e+001
99403750 9.788598e-001 8.428637e+001 3.504502e-005 1.361567e+002 2.046283e-005 -5.685751e+001 9.745480e-001 1.630810e+001
101059375 9.786518e-001 8.271545e+001 1.849039e-005 1.080193e+002 3.186559e-005 -1.546605e+002 9.750983e-001 1.362783e+001
102715000 9.792799e-001 8.117009e+001 1.018859e-005 -1.563141e+002 5.176383e-005 1.537863e+001 9.759897e-001 1.093606e+001
104370625 9.788445e-001 7.959482e+001 2.633489e-005 1.754423e+002 2.266544e-005 2.040642e+001 9.767587e-001 8.242913e+000
106026250 9.787327e-001 7.804111e+001 8.469989e-006 1.378835e+002 7.871015e-006 4.190685e+001 9.770001e-001 5.562781e+000
107681875 9.787399e-001 7.646838e+001 1.784559e-005 2.390960e+001 2.472259e-005 -3.522755e+001 9.778132e-001 2.865113e+000
109337500 9.789972e-001 7.493376e+001 9.545260e-006 1.426301e+002 1.925079e-005 1.416598e+002 9.781172e-001 1.713214e-001
110993125 9.787226e-001 7.334943e+001 6.084521e-005 1.430807e+001 1.405417e-005 7.655182e+001 9.782774e-001 -2.548501e+000
112648750 9.785327e-001 7.178365e+001 1.625782e-005 -9.614315e+001 1.422544e-005 -1.482371e+002 9.787846e-001 -5.242981e+000
114304375 9.785430e-001 7.021318e+001 3.350189e-005 8.028992e+001 2.440217e-005 1.539354e+002 9.787808e-001 -7.967686e+000
115960000 9.788058e-001 6.867220e+001 3.303682e-005 -1.699906e+002 2.727260e-005 4.864701e+001 9.793490e-001 -1.067824e+001
117615625 9.784379e-001 6.710854e+001 2.800414e-005 1.567506e+001 2.256272e-005 -6.687336e+001 9.792506e-001 -1.340942e+001
119271250 9.783002e-001 6.555686e+001 2.056377e-005 1.218795e+002 5.489900e-005 -1.412863e+002 9.791226e-001 -1.612605e+001
120926875 9.784930e-001 6.402087e+001 3.830019e-005 -7.983015e+001 1.149147e-005 1.089255e+002 9.791796e-001 -1.887259e+001
122582500 9.783476e-001 6.246015e+001 4.379997e-005 1.088362e+002 3.697722e-005 -6.020218e+001 9.789472e-001 -2.163271e+001
124238125 9.781636e-001 6.092054e+001 3.507152e-005 3.997119e+001 1.431040e-005 4.454018e+001 9.787259e-001 -2.438491e+001
125893750 9.785699e-001 5.937680e+001 8.738409e-006 -1.665005e+002 2.398079e-005 -1.657201e+001 9.782357e-001 -2.715387e+001
127549375 9.782397e-001 5.780048e+001 5.897121e-006 7.577135e+001 3.970056e-005 -1.195028e+002 9.777775e-001 -2.992798e+001
129205000 9.782328e-001 5.629168e+001 4.300979e-005 -7.598411e+001 1.129046e-005 -1.618772e+002 9.769329e-001 -3.272445e+001
130860625 9.780499e-001 5.473438e+001 1.532145e-005 -1.184477e+002 2.057370e-005 4.144385e+001 9.758800e-001 -3.552056e+001
132516250 9.784478e-001 5.318895e+001 2.970984e-005 -2.886567e+001 2.165432e-005 -5.713702e+001 9.747357e-001 -3.835656e+001
134171875 9.784076e-001 5.162771e+001 2.124197e-005 -1.410954e+002 3.414319e-005 1.699846e+002 9.731419e-001 -4.117310e+001
135827500 9.784354e-001 5.010177e+001 2.425591e-005 -1.685949e+002 2.035043e-005 -5.232943e+001 9.716254e-001 -4.401735e+001
137483125 9.783197e-001 4.854805e+001 1.133403e-005 1.699913e+002 4.563120e-005 5.690609e+001 9.694568e-001 -4.688281e+001
139138750 9.784423e-001 4.700507e+001 3.794341e-005 7.171436e+000 2.564676e-005 1.515726e+001 9.671092e-001 -4.976823e+001
140794375 9.785789e-001 4.547209e+001 2.788248e-005 -1.725938e+002 1.413635e-005 1.062442e+002 9.645135e-001 -5.264317e+001
142450000 9.787406e-001 4.393002e+001 3.894435e-005 -8.370576e+001 3.104526e-005 1.168489e+002 9.610957e-001 -5.555948e+001
144105625 9.790080e-001 4.239542e+001 7.388398e-006 -2.739743e+001 1.918550e-005 -9.599756e+001 9.575518e-001 -5.848273e+001
145761250 9.790798e-001 4.085448e+001 3.886461e-005 -8.194743e+001 4.239014e-005 1.297917e+002 9.533693e-001 -6.143091e+001
147416875 9.790030e-001 3.932150e+001 1.240012e-005 1.468640e+002 1.086210e-005 -1.469041e+002 9.485095e-001 -6.438837e+001
149072500 9.791602e-001 3.777510e+001 4.196301e-005 -1.735345e+002 4.803259e-006 -1.576216e+002 9.430205e-001 -6.735999e+001
150728125 9.795462e-001 3.623296e+001 2.714753e-005 2.362184e+001 2.651914e-005 7.950419e+001 9.372799e-001 -7.035842e+001
152383750 9.797199e-001 3.469530e+001 2.568710e-005 7.649803e+001 2.451454e-005 3.500234e+001 9.301494e-001 -7.335070e+001
154039375 9.799738e-001 3.315367e+001 1.232601e-005 -8.845385e+001 5.478137e-006 1.419663e+002 9.222435e-001 -7.636315e+001
155695000 9.799982e-001 3.161602e+001 2.965904e-005 1.047471e+000 1.373610e-005 1.246529e+002 9.136913e-001 -7.936257e+001
157350625 9.802281e-001 3.007867e+001 2.936341e-005 -5.631532e+001 1.397619e-005 1.490444e+002 9.038545e-001 -8.238458e+001
159006250 9.806619e-001 2.854119e+001 1.418470e-005 -2.533955e+001 2.953096e-005 -2.144377e+001 8.928456e-001 -8.541053e+001
160661875 9.807297e-001 2.699021e+001 2.774822e-005 1.623320e+002 2.411629e-005 -1.421387e+001 8.813335e-001 -8.840058e+001
162317500 9.808809e-001 2.545225e+001 3.983092e-005 1.341145e+002 4.809365e-005 -7.855459e+001 8.683592e-001 -9.138359e+001
163973125 9.811666e-001 2.391114e+001 1.120167e-005 -9.089720e+001 2.811693e-005 4.748347e+001 8.541167e-001 -9.431382e+001
165628750 9.811993e-001 2.238041e+001 3.172322e-005 -1.603556e+002 4.567010e-005 6.334777e+001 8.389360e-001 -9.720982e+001
167284375 9.815925e-001 2.082416e+001 2.572866e-005 4.300423e+001 1.052254e-005 -1.133395e+002 8.223126e-001 -1.000385e+002
168940000 9.817579e-001 1.929522e+001 1.480642e-005 -4.323388e+001 1.779046e-005 1.587049e+002 8.046086e-001 -1.027980e+002
170595625 9.819089e-001 1.775149e+001 1.555021e-005 -1.160124e+002 3.200993e-005 -5.727842e+001 7.860900e-001 -1.054567e+002
172251250 9.820491e-001 1.621498e+001 1.593344e-005 1.439529e+002 4.932026e-006 -3.739845e+000 7.665977e-001 -1.079759e+002
173906875 9.820526e-001 1.465053e+001 2.472832e-005 1.542984e+001 2.232963e-005 1.597615e+002 7.468032e-001 -1.103381e+002
175562500 9.822903e-001 1.312005e+001 8.140918e-006 8.327438e+001 3.927424e-005 -1.819455e+001 7.267558e-001 -1.125348e+002
177218125 9.825406e-001 1.158122e+001 2.132542e-005 3.014826e+001 3.709251e-005 9.560281e+001 7.066250e-001 -1.145370e+002
178873750 9.825665e-001 1.005083e+001 4.788515e-006 1.504756e+001 5.828944e-006 -1.348593e+002 6.871914e-001 -1.163117e+002
180529375 9.825605e-001 8.496440e+000 2.871582e-005 1.433597e+002 1.720656e-005 -1.647620e+002 6.686100e-001 -1.178761e+002
182185000 9.828292e-001 6.967424e+000 2.805400e-005 -3.068838e+000 2.378309e-005 -1.766566e+002 6.519554e-001 -1.192005e+002
183840625 9.827579e-001 5.434597e+000 1.225469e-005 -2.316397e+001 2.008024e-005 6.707420e+001 6.373765e-001 -1.203282e+002
185496250 9.829180e-001 3.889359e+000 9.593357e-006 5.039864e+001 1.399526e-006 8.940068e+001 6.249228e-001 -1.212688e+002
187151875 9.828434e-001 2.340346e+000 1.474803e-005 8.841290e+001 2.975304e-005 -2.175769e+001 6.151511e-001 -1.220509e+002
188807500 9.828221e-001 8.009282e-001 5.480337e-006 -6.467576e+001 1.823145e-005 2.630132e+001 6.083623e-001 -1.227429e+002
190463125 9.831427e-001 -7.341014e-001 4.325189e-006 3.095797e+001 2.201657e-005 3.883768e+001 6.043693e-001 -1.233793e+002
192118750 9.830701e-001 -2.266856e+000 4.753348e-006 -9.387203e+001 7.260676e-006 -1.436042e+002 6.031008e-001 -1.240658e+002
193774375 9.830369e-001 -3.801805e+000 4.764411e-006 -1.672850e+001 3.974718e-006 8.334067e+001 6.046843e-001 -1.247968e+002
195430000 9.832953e-001 -5.345405e+000 2.489458e-005 -1.047892e+002 1.275625e-005 6.391966e+001 6.084029e-001 -1.256524e+002
197085625 9.832302e-001 -6.877911e+000 1.643888e-005 1.243761e+002 9.148424e-006 3.212552e+001 6.141199e-001 -1.266332e+002
198741250 9.834139e-001 -8.414709e+000 3.689006e-005 -1.686633e+002 1.257215e-005 -1.147986e+002 6.213210e-001 -1.277730e+002
200396875 9.833751e-001 -9.951028e+000 2.556629e-005 3.872180e+001 7.898569e-006 1.341901e+002 6.298737e-001 -1.290820e+002
202052500 9.836167e-001 -1.148785e+001 8.403703e-006 -1.086123e+002 1.521472e-005 5.773159e+001 6.390265e-001 -1.305552e+002
203708125 9.836099e-001 -1.303212e+001 8.266071e-006 1.088502e+001 1.557795e-005 1.313453e+002 6.489123e-001 -1.321867e+002
205363750 9.837037e-001 -1.456705e+001 1.924469e-005 -9.385454e+001 1.692295e-005 -5.455347e+001 6.593042e-001 -1.339586e+002
207019375 9.838091e-001 -1.611042e+001 2.441403e-005 1.519153e+002 2.691166e-005 -4.922917e+001 6.698929e-001 -1.358805e+002
208675000 9.840240e-001 -1.764226e+001 5.256132e-007 -1.338505e+002 3.395230e-005 -3.093706e+001 6.804826e-001 -1.379030e+002
210330625 9.840671e-001 -1.918904e+001 2.167385e-005 -8.584341e+001 1.076166e-005 -1.098549e+001 6.908200e-001 -1.400462e+002
211986250 9.842849e-001 -2.073038e+001 4.011596e-006 -1.257803e+002 3.413248e-006 -6.646519e+001 7.008939e-001 -1.422716e+002
213641875 9.843137e-001 -2.227600e+001 6.221266e-005 -5.327958e+001 1.575476e-005 -4.347673e+001 7.106971e-001 -1.445771e+002
215297500 9.844031e-001 -2.381308e+001 1.685206e-005 4.526678e+001 7.016035e-006 1.606015e+002 7.200959e-001 -1.469659e+002
216953125 9.844193e-001 -2.534868e+001 2.182552e-005 -4.149953e+001 6.970099e-006 1.704124e+002 7.290907e-001 -1.494029e+002
218608750 9.844715e-001 -2.689932e+001 1.246346e-005 -1.376368e+002 1.949753e-005 -5.364635e+000 7.378191e-001 -1.518811e+002
220264375 9.845914e-001 -2.843998e+001 1.849398e-005 8.970663e+001 9.896909e-006 1.234123e+002 7.461952e-001 -1.544243e+002
221920000 9.845676e-001 -2.999078e+001 9.983089e-006 1.590794e+002 2.420700e-005 -3.733730e+001 7.541560e-001 -1.570040e+002
223575625 9.848354e-001 -3.152812e+001 2.993239e-005 -1.726751e+002 2.276057e-005 -8.499050e+001 7.616150e-001 -1.596211e+002
225231250 9.849364e-001 -3.307940e+001 1.061887e-005 4.209469e+001 2.551808e-005 -1.678262e+001 7.688110e-001 -1.622577e+002
226886875 9.850298e-001 -3.462565e+001 1.901960e-005 1.383195e+002 1.733045e-005 8.869628e+000 7.754999e-001 -1.649286e+002
228542500 9.849501e-001 -3.617785e+001 1.067923e-005 -1.464661e+002 1.266465e-005 -1.310135e+002 7.819637e-001 -1.676123e+002
230198125 9.849745e-001 -3.772422e+001 2.436778e-005 -1.685021e+002 1.021477e-005 -2.031860e+001 7.881076e-001 -1.703232e+002
231853750 9.850274e-001 -3.927584e+001 1.683288e-005 1.365099e+002 6.338365e-006 1.712105e+001 7.938765e-001 -1.730484e+002
233509375 9.851208e-001 -4.083194e+001 1.056239e-005 -1.599933e+002 3.098454e-006 6.506998e+001 7.994428e-001 -1.757872e+002
235165000 9.850371e-001 -4.238779e+001 1.899631e-005 -9.767903e+001 1.172092e-005 3.919163e+001 8.045658e-001 -1.785365e+002
236820625 9.851147e-001 -4.394080e+001 1.589872e-005 -1.516076e+002 2.365926e-005 8.579494e+001 8.095344e-001 1.787055e+002
238476250 9.850392e-001 -4.548640e+001 1.360061e-005 1.047266e+002 3.262010e-005 -4.871392e+001 8.141866e-001 1.759363e+002
240131875 9.850768e-001 -4.704715e+001 4.196458e-005 1.732411e+002 1.536412e-005 3.579665e+001 8.188649e-001 1.731518e+002
241787500 9.849511e-001 -4.859439e+001 2.486522e-005 -1.556871e+002 1.197982e-005 -1.570901e+001 8.230960e-001 1.703625e+002
243443125 9.847715e-001 -5.014510e+001 1.703676e-005 -4.861068e+001 1.668938e-005 1.261537e+002 8.272433e-001 1.675598e+002
245098750 9.848433e-001 -5.170716e+001 1.553789e-005 1.460899e+002 2.535063e-005 -2.420617e+001 8.311259e-001 1.647522e+002
246754375 9.844930e-001 -5.325370e+001 2.266012e-005 2.599396e+001 1.408913e-005 -9.370705e+001 8.350869e-001 1.619397e+002
248410000 9.842402e-001 -5.482575e+001 1.769548e-005 -1.642114e+002 1.418221e-005 -1.776371e+002 8.385912e-001 1.591158e+002
250065625 9.841335e-001 -5.637140e+001 2.336468e-005 1.513009e+002 5.332343e-006 1.422648e+002 8.420979e-001 1.562960e+002
251721250 9.841685e-001 -5.793037e+001 6.470563e-006 9.451424e+001 1.707347e-005 1.681184e+002 8.452817e-001 1.534594e+002
253376875 9.836097e-001 -5.947435e+001 1.306622e-005 -1.603965e+002 1.600487e-005 -8.962352e+001 8.486357e-001 1.506245e+002
255032500 9.834622e-001 -6.103536e+001 4.591705e-006 -1.676893e+002 1.679523e-005 -3.459235e+001 8.515756e-001 1.477822e+002
256688125 9.837106e-001 -6.258626e+001 8.200534e-006 -1.499381e+002 2.109822e-005 -1.003102e+002 8.547198e-001 1.449222e+002
258343750 9.834064e-001 -6.414636e+001 2.462813e-005 9.112284e+001 8.535078e-006 1.614974e+001 8.577057e-001 1.420602e+002
259999375 9.833336e-001 -6.569482e+001 2.157945e-005 1.753398e+002 4.025718e-006 1.648906e+002 8.604483e-001 1.391966e+002
261655000 9.833418e-001 -6.725586e+001 1.430302e-005 1.126104e+002 6.844723e-006 -1.243883e+002 8.632751e-001 1.363356e+002
263310625 9.829597e-001 -6.880407e+001 9.583307e-006 4.180189e+001 2.902557e-005 9.110259e+000 8.660020e-001 1.334704e+002
264966250 9.829155e-001 -7.036208e+001 1.454211e-005 1.482910e+002 1.855809e-005 -1.724634e+002 8.684302e-001 1.305972e+002
266621875 9.829785e-001 -7.190852e+001 1.271804e-005 -1.161189e+002 1.254901e-005 -4.467379e+001 8.710955e-001 1.277086e+002
268277500 9.825307e-001 -7.348322e+001 2.448390e-005 -1.726479e+002 1.490337e-005 -2.305306e+001 8.733897e-001 1.248281e+002
269933125 9.824814e-001 -7.503713e+001 1.317034e-005 1.548642e+002 1.181570e-005 -8.643146e+001 8.757072e-001 1.219235e+002
271588750 9.823507e-001 -7.660747e+001 3.002140e-005 -3.761137e+001 8.529979e-006 3.682836e+001 8.777816e-001 1.190418e+002
